!Agilent Technologies,N5227A,US51270349,A.09.80.20
!Agilent N5227A: A.09.80.20
!Date: Friday, May 27, 2022 18:38:55
!Correction: S11(Full 2 Port(1,2)) 
!S21(Full 2 Port(1,2)) 
!S12(Full 2 Port(1,2)) 
!S22(Full 2 Port(1,2)) 
!S2P File: Measurements: S11, S21, S12, S22:
# Hz S  RI   R 50
100000000 0.95995611 -0.23950382 -8.2819405 1.8287671 0.0028983036 0.010882228 0.48798418 -0.1114907
101234375 0.96380007 -0.23872113 -8.243288 1.7692482 0.001826936 0.010364102 0.48785892 -0.11485393
102468750 0.96038514 -0.23858136 -8.2732601 1.7875293 0.0029265808 0.010503657 0.48625055 -0.11483365
103703125 0.95876145 -0.24392305 -8.2407856 1.829077 0.0028514068 0.011091084 0.48382723 -0.11264008
104937500 0.95866513 -0.24434209 -8.2355623 1.8495556 0.0028479076 0.011694903 0.48450789 -0.11446154
106171875 0.96276706 -0.24658175 -8.2545271 1.8711114 0.0029291206 0.011179447 0.48585263 -0.11660486
107406250 0.95801026 -0.25039905 -8.223794 1.8918179 0.0030756926 0.012801404 0.484494 -0.11563507
108640625 0.96112061 -0.25668347 -8.2675047 1.9079922 0.0023783997 0.010607138 0.48587528 -0.11904953
109875000 0.95969594 -0.25915572 -8.2402 1.9473937 0.0029403456 0.011220837 0.48569447 -0.1181426
111109375 0.9593007 -0.26223797 -8.2198257 1.9676969 0.0029073164 0.010765596 0.48685035 -0.11915908
112343750 0.95741105 -0.26384273 -8.2234516 1.9933026 0.0038479795 0.011012312 0.48559493 -0.12102067
113578125 0.96026808 -0.26971212 -8.2129869 2.0304773 0.003183607 0.011241812 0.48576242 -0.12376378
114812500 0.95429289 -0.27102152 -8.179122 2.0277104 0.0031362039 0.011636842 0.48644444 -0.12587459
116046875 0.9560312 -0.2735118 -8.1956873 2.0467808 0.0026120751 0.011999766 0.48583984 -0.12742247
117281250 0.95367688 -0.27358139 -8.1741982 2.0482674 0.0032269962 0.011576124 0.48500279 -0.1275502
118515625 0.95160556 -0.27860504 -8.1795073 2.1010728 0.0030451803 0.01246565 0.48392618 -0.12974264
119750000 0.95341527 -0.28268167 -8.1889334 2.1280036 0.0035137704 0.011640639 0.48366401 -0.12960356
120984375 0.95177573 -0.28169933 -8.1757774 2.1336083 0.0029022456 0.012129841 0.48387715 -0.13210385
122218750 0.95082027 -0.28677288 -8.1708689 2.1534514 0.0024394973 0.012438929 0.48337716 -0.1330817
123453125 0.95247465 -0.28770065 -8.164793 2.1807401 0.003302092 0.012772434 0.48382965 -0.13410111
124687500 0.95239705 -0.2889328 -8.1807156 2.1770627 0.0029278183 0.01230895 0.48528838 -0.13460769
125921875 0.95148754 -0.29119194 -8.1553783 2.2145457 0.0033129256 0.012450669 0.48528042 -0.13635699
127156250 0.95200402 -0.296514 -8.1467733 2.2517524 0.0030423768 0.012362543 0.48563516 -0.13793927
128390625 0.95326275 -0.2976819 -8.1431837 2.2385471 0.002202193 0.012006019 0.48715776 -0.1407346
129625000 0.95708901 -0.30177739 -8.1820126 2.2807689 0.0020036453 0.013110358 0.48779562 -0.1435661
130859375 0.95852512 -0.30854082 -8.1431408 2.3453822 0.0014247815 0.013123252 0.48770377 -0.147232
132093750 0.96246696 -0.3176707 -8.1713448 2.4028265 0.0012006982 0.013744287 0.48857754 -0.15262797
133328125 0.9625724 -0.33774677 -8.1321564 2.4740262 0.0013561479 0.015852818 0.48603475 -0.16129479
134562500 0.93488139 -0.36028636 -7.9741683 2.5741496 0.0034573535 0.0182359 0.47217202 -0.17060299
135796875 0.89433908 -0.3401477 -7.8173032 2.4238939 0.0078873523 0.016721226 0.45002666 -0.15782122
137031250 0.90618831 -0.30340365 -7.9307756 2.269731 0.007548471 0.012884576 0.45955184 -0.13452393
138265625 0.92864937 -0.30046707 -8.0352621 2.3011944 0.0053163781 0.011767034 0.47694707 -0.13399883
139500000 0.94065434 -0.30907941 -8.0874548 2.3437665 0.0040399483 0.012573357 0.48287642 -0.14233053
140734375 0.94238919 -0.31950086 -8.0876551 2.4385443 0.0033472634 0.012920709 0.48300272 -0.14925344
141968750 0.9419843 -0.32620394 -8.0611105 2.4632359 0.0035798324 0.014422873 0.48243397 -0.15286124
143203125 0.93991959 -0.33284143 -8.0642643 2.4956837 0.0033454096 0.014042377 0.4812192 -0.15708633
144437500 0.93798018 -0.33629283 -8.046175 2.5217104 0.0035201614 0.014176065 0.47946039 -0.15852052
145671875 0.93683547 -0.33939442 -8.0375547 2.5447075 0.0034211779 0.014626653 0.47846392 -0.16079846
146906250 0.93626243 -0.34328395 -8.0355186 2.5522068 0.0042390674 0.014579696 0.47793785 -0.16230811
148140625 0.93455929 -0.34554771 -8.0149412 2.5738933 0.0044628531 0.015241677 0.47690967 -0.16325746
149375000 0.93100125 -0.3485921 -8.0057602 2.6018944 0.0037993265 0.014947781 0.47642925 -0.16512498
150609375 0.92990977 -0.35084376 -7.9865379 2.6283801 0.0047241859 0.015460421 0.47527584 -0.16549896
151843750 0.9281013 -0.35287815 -7.9762959 2.6308868 0.0043475511 0.015477371 0.47517002 -0.16708487
153078125 0.92727929 -0.35499501 -7.976819 2.6468303 0.0045076255 0.015287399 0.47390166 -0.16857259
154312500 0.92601144 -0.35788593 -7.9550462 2.675554 0.0046145497 0.016232092 0.47380194 -0.16950525
155546875 0.92575198 -0.36118236 -7.9660244 2.6952121 0.004980946 0.015908957 0.47249475 -0.17092964
156781250 0.92317355 -0.36406931 -7.9395156 2.7311373 0.0048296549 0.015494701 0.47243112 -0.17230254
158015625 0.92264092 -0.36773187 -7.9399133 2.7291505 0.00470838 0.016518209 0.47113481 -0.17365077
159250000 0.92056316 -0.36807382 -7.9238963 2.7387195 0.0050233677 0.016254742 0.47131261 -0.17482172
160484375 0.92032421 -0.37153056 -7.9192681 2.7706304 0.0048653632 0.016259434 0.47067955 -0.17633994
161718750 0.91806513 -0.37521759 -7.8942547 2.7995765 0.0051659266 0.016133582 0.47074676 -0.17763764
162953125 0.91692364 -0.37733564 -7.8931704 2.8120892 0.005572631 0.016287696 0.4702118 -0.17850782
164187500 0.91725403 -0.38097745 -7.8917952 2.8278501 0.0051978161 0.017164731 0.46868107 -0.18044132
165421875 0.9144876 -0.38329798 -7.8799076 2.8609078 0.005569689 0.016472418 0.46811768 -0.18174271
166656250 0.91320956 -0.38558054 -7.8553305 2.8692186 0.0054887203 0.016587254 0.46781874 -0.18326043
167890625 0.91170418 -0.38903201 -7.8465576 2.8924403 0.0056850109 0.016456001 0.46764567 -0.18432945
169125000 0.91097319 -0.39063892 -7.8463435 2.8975229 0.005963156 0.016817385 0.46681079 -0.18521523
170359375 0.90993309 -0.39519292 -7.8340569 2.9474521 0.0059203361 0.016551992 0.46624652 -0.18704025
171593750 0.90775394 -0.39609581 -7.8126669 2.947979 0.0059941462 0.016788963 0.46575078 -0.18804835
172828125 0.90584171 -0.39838049 -7.8165011 2.9758224 0.0056868335 0.017104542 0.46441481 -0.18983239
174062500 0.9057849 -0.4016346 -7.808701 2.9854341 0.0059191491 0.017016491 0.46406239 -0.19103262
175296875 0.90224546 -0.40259972 -7.7935038 3.0118988 0.0064575979 0.018231539 0.46318778 -0.19142167
176531250 0.90079999 -0.40355995 -7.7683845 3.0305667 0.0062328824 0.017493311 0.46394345 -0.19214107
177765625 0.90189201 -0.40957808 -7.7728639 3.0346947 0.0060608024 0.017575426 0.46260697 -0.19465856
179000000 0.90100449 -0.41596463 -7.7945633 3.0929911 0.0057051973 0.017824044 0.46106499 -0.19785325
180234375 0.89862776 -0.41606945 -7.792594 3.0686936 0.0061270352 0.018049611 0.46279132 -0.1982508
181468750 0.89898092 -0.41734874 -7.7520118 3.0869937 0.006485424 0.017466119 0.46224374 -0.19923778
182703125 0.89685738 -0.41752377 -7.7439523 3.1031127 0.006539538 0.017645791 0.46236852 -0.2010926
183937500 0.89630002 -0.4244796 -7.7320743 3.1358244 0.0068789083 0.017990233 0.46108046 -0.20202914
185171875 0.89411914 -0.42706895 -7.7200193 3.1555419 0.0064466381 0.018505581 0.45920655 -0.20386229
186406250 0.89175624 -0.42893896 -7.6842246 3.2103763 0.0068522198 0.018791653 0.45831111 -0.20384456
187640625 0.89051807 -0.43401706 -7.7124915 3.1941226 0.0060086902 0.018900065 0.45692948 -0.20718352
188875000 0.88714838 -0.43352246 -7.6741428 3.2311413 0.0072954074 0.018600073 0.45672101 -0.2076923
190109375 0.88591695 -0.43845779 -7.6564484 3.2076201 0.007030481 0.01882665 0.45757872 -0.20850132
191343750 0.88551497 -0.44128355 -7.6821103 3.2481711 0.0069542248 0.019615576 0.45517078 -0.21247511
192578125 0.88215715 -0.44381604 -7.6813407 3.2770026 0.0072924001 0.019938914 0.45342723 -0.21345831
193812500 0.88395733 -0.44667757 -7.6555185 3.3077598 0.0080884453 0.019826682 0.45270783 -0.21508306
195046875 0.87672853 -0.45027861 -7.6252489 3.3426547 0.0074899592 0.019893209 0.4482888 -0.21738173
196281250 0.87284952 -0.4544273 -7.5854735 3.3430092 0.0081760129 0.019116929 0.4463951 -0.21865655
197515625 0.86832225 -0.4544999 -7.5641308 3.3666186 0.0088931452 0.020239403 0.44132 -0.21681587
198750000 0.8627969 -0.45178473 -7.5366511 3.3181129 0.009203149 0.019747075 0.43819755 -0.21508962
199984375 0.8598606 -0.44467485 -7.5399652 3.3086026 0.011141576 0.01956803 0.43433419 -0.20835826
201218750 0.8643834 -0.42932394 -7.5889015 3.2328999 0.01250158 0.01627174 0.4382447 -0.19628619
202453125 0.88540816 -0.42730752 -7.7088499 3.2446136 0.0082338247 0.013652672 0.45730358 -0.18963078
203687500 0.90389037 -0.45026097 -7.7707963 3.4172106 0.0049888436 0.014471866 0.47592834 -0.2065679
204921875 0.89731663 -0.47328374 -7.674716 3.5241096 0.0030380066 0.018610481 0.4716647 -0.22603954
206156250 0.87929636 -0.4816474 -7.5915246 3.5545096 0.0049031214 0.020631574 0.46122843 -0.23451622
207390625 0.87404305 -0.48508552 -7.5523109 3.5546389 0.0062214676 0.021452719 0.45298848 -0.23606403
208625000 0.8712219 -0.48592725 -7.557488 3.5741034 0.0078335702 0.020821881 0.44773614 -0.2358373
209859375 0.86411029 -0.4840107 -7.50876 3.5814331 0.0076384638 0.021354163 0.44449517 -0.23528342
211093750 0.86166859 -0.48595917 -7.4959788 3.5809474 0.0088319136 0.021928089 0.44384283 -0.23442502
212328125 0.85911089 -0.48548642 -7.4735661 3.5684006 0.0082055293 0.021375498 0.44268191 -0.23381457
213562500 0.85772276 -0.4892855 -7.4876008 3.593122 0.0096722888 0.022047343 0.44128838 -0.23456548
214796875 0.85367525 -0.48968044 -7.4511409 3.6026549 0.0090711629 0.021496696 0.44012484 -0.2345041
216031250 0.85500163 -0.49218544 -7.4779878 3.6153166 0.0085867103 0.021459969 0.44064674 -0.23603821
217265625 0.85469902 -0.49347576 -7.4582167 3.6374502 0.0099342568 0.021079887 0.44015527 -0.23627883
218500000 0.852808 -0.49425399 -7.4401608 3.6255987 0.0092852525 0.02065192 0.44054231 -0.23751202
219734375 0.85196841 -0.4980582 -7.416378 3.6682072 0.0099879196 0.020942636 0.44010469 -0.23718764
220968750 0.85069239 -0.49900451 -7.4442277 3.6728201 0.0091849007 0.020992618 0.43923098 -0.23990169
222203125 0.8484807 -0.50158548 -7.4186358 3.7010262 0.0091723502 0.021602614 0.43800798 -0.24120922
223437500 0.8477422 -0.50240546 -7.4233551 3.7123721 0.009581523 0.020730311 0.43796945 -0.24290019
224671875 0.84769052 -0.50520205 -7.3874493 3.7312636 0.0097632501 0.021501373 0.43754536 -0.24148029
225906250 0.84354562 -0.5107531 -7.3742347 3.7533987 0.010085631 0.020895422 0.4370856 -0.24328746
227140625 0.84447449 -0.50901639 -7.3764658 3.7585018 0.01033322 0.021774551 0.43622565 -0.24501686
228375000 0.84033334 -0.51361609 -7.3615403 3.781888 0.010656884 0.021739088 0.43594465 -0.24550828
229609375 0.84086424 -0.51710463 -7.3575878 3.8085277 0.0097782789 0.021703465 0.43470806 -0.24807276
230843750 0.83753026 -0.51679456 -7.3343792 3.8298538 0.010406787 0.022041641 0.43342078 -0.24756655
232078125 0.83758777 -0.52099729 -7.3395329 3.8347504 0.010085365 0.02220455 0.43251351 -0.24958587
233312500 0.83689404 -0.52359611 -7.3323507 3.8676822 0.010872358 0.021563808 0.43232656 -0.2518329
234546875 0.83442551 -0.52555662 -7.3312335 3.8807051 0.010609643 0.021999052 0.43175817 -0.2531794
235781250 0.8332746 -0.52910918 -7.2900181 3.883116 0.010152924 0.02166809 0.43140286 -0.25366554
237015625 0.83036524 -0.52828568 -7.2841396 3.8964872 0.010687031 0.021916497 0.43055171 -0.2552
238250000 0.82845932 -0.5312804 -7.2858934 3.9042861 0.010262457 0.022333857 0.42998442 -0.25583664
239484375 0.82797617 -0.53495485 -7.2601719 3.9434147 0.011638744 0.022702625 0.42897457 -0.2556628
240718750 0.82505709 -0.5356316 -7.2490263 3.9522281 0.010894813 0.022609126 0.42757598 -0.25825211
241953125 0.82662612 -0.53818738 -7.2475052 3.9577341 0.011471969 0.023227077 0.42796582 -0.25894904
243187500 0.82228404 -0.54191345 -7.2468328 4.0002789 0.011115786 0.022503469 0.42569512 -0.26118672
244421875 0.82099104 -0.54328954 -7.2317715 4.0188041 0.011023726 0.022938013 0.42504737 -0.26186094
245656250 0.81831712 -0.54538912 -7.2035532 4.0072846 0.011479078 0.023506518 0.42513794 -0.26256177
246890625 0.81821829 -0.54836535 -7.2113771 4.009201 0.01161091 0.023115708 0.42541361 -0.26411244
248125000 0.81513649 -0.54952633 -7.1789684 4.0550861 0.011894241 0.022600681 0.42292976 -0.26562235
249359375 0.81306195 -0.55200005 -7.1581392 4.06463 0.011823008 0.023132686 0.42313388 -0.26663986
250593750 0.81124336 -0.55607653 -7.1643114 4.0863929 0.012340979 0.023723532 0.41989553 -0.26594409
251828125 0.81046838 -0.55498606 -7.1089363 4.0966873 0.012245295 0.023459757 0.42155567 -0.26731834
253062500 0.80983454 -0.55941349 -7.1538835 4.1125374 0.012125309 0.023589268 0.41935322 -0.27154332
254296875 0.80576938 -0.56210464 -7.1276803 4.1418209 0.012145539 0.023917018 0.41803303 -0.27056906
255531250 0.80648023 -0.56209308 -7.1318798 4.1397047 0.011681071 0.022769 0.41865584 -0.27361944
256765625 0.80464077 -0.56654358 -7.1049271 4.1615248 0.012710904 0.02337368 0.41785565 -0.27356499
258000000 0.80067241 -0.56705993 -7.073873 4.1758127 0.011403278 0.023865933 0.41585669 -0.27347881
259234375 0.80061537 -0.57110751 -7.0613289 4.1925101 0.012567911 0.024648199 0.41540828 -0.27397755
260468750 0.79820442 -0.56980348 -7.0684667 4.1869583 0.013057716 0.023743132 0.41466847 -0.27617314
261703125 0.79947317 -0.57370692 -7.0806623 4.1786771 0.013309037 0.024205662 0.41538209 -0.27705583
262937500 0.79554498 -0.57853311 -7.0617986 4.2547069 0.013487694 0.023905413 0.41424707 -0.27701113
264171875 0.79232711 -0.57971472 -7.0053544 4.2700357 0.013776353 0.023860443 0.41411719 -0.27737099
265406250 0.7949242 -0.58144534 -7.0545454 4.263586 0.01303661 0.022471087 0.41349003 -0.28144535
266640625 0.78886175 -0.58439189 -7.0059218 4.3207116 0.01347158 0.023880363 0.41145012 -0.28020924
267875000 0.79101276 -0.58883393 -7.0213456 4.3252845 0.014059169 0.023924936 0.41060224 -0.28086454
269109375 0.78844738 -0.58913922 -6.9891648 4.351965 0.013529312 0.023936357 0.41125363 -0.28129122
270343750 0.79056668 -0.59140843 -6.993803 4.3606057 0.012868424 0.023948193 0.41205502 -0.28421602
271578125 0.78240323 -0.59819037 -6.9746027 4.4030704 0.012925812 0.023970915 0.41231102 -0.2878527
272812500 0.78261781 -0.59792763 -6.9635653 4.3972988 0.013832061 0.024892978 0.41232675 -0.29111144
274046875 0.77600402 -0.60552293 -6.9169574 4.452251 0.013542786 0.025283307 0.40789688 -0.29227036
275281250 0.77466935 -0.60115802 -6.930582 4.4112034 0.012767094 0.026291 0.40293407 -0.29611477
276515625 0.774252 -0.60311741 -6.9057045 4.4593 0.0148477 0.025776638 0.40089941 -0.29532072
277750000 0.77148879 -0.60262346 -6.8864388 4.4551158 0.01462217 0.025440833 0.40044641 -0.29307309
278984375 0.77052569 -0.60414833 -6.8982511 4.423007 0.014570381 0.025773903 0.40024152 -0.29364735
280218750 0.76541775 -0.6081174 -6.8353252 4.4922848 0.015044632 0.025524989 0.39831406 -0.29201362
281453125 0.76642424 -0.60843498 -6.8435397 4.4916334 0.015868081 0.025058074 0.39857835 -0.2932063
282687500 0.76306796 -0.6123144 -6.8359933 4.5003843 0.013896834 0.02569445 0.39754149 -0.29522753
283921875 0.76410782 -0.61567986 -6.8190136 4.5378017 0.015189968 0.025165347 0.39774156 -0.29663679
285156250 0.76412976 -0.61823153 -6.8077903 4.5521841 0.01464403 0.025073091 0.39679959 -0.29859218
286390625 0.75712699 -0.62040502 -6.7842107 4.5921249 0.01485284 0.025501037 0.39482 -0.29886442
287625000 0.7583288 -0.61818004 -6.8380461 4.562016 0.015094428 0.024685454 0.39551562 -0.30375978
288859375 0.75744379 -0.62280643 -6.771462 4.6122284 0.015764751 0.02527239 0.39328572 -0.30195984
290093750 0.75540853 -0.62449062 -6.8036909 4.6051927 0.015527961 0.025285272 0.39468569 -0.30323204
291328125 0.75267571 -0.62747687 -6.7558856 4.626472 0.015546199 0.025693484 0.39325589 -0.30320409
292562500 0.74753618 -0.62723666 -6.728754 4.6065135 0.015457039 0.025422685 0.3915351 -0.30524307
293796875 0.74702328 -0.62989277 -6.7034559 4.6422286 0.016268015 0.025122512 0.39097524 -0.30679506
295031250 0.74842411 -0.63350946 -6.7441015 4.6480799 0.016513767 0.02532259 0.39100668 -0.30803129
296265625 0.74291205 -0.63574713 -6.6821966 4.715075 0.01560032 0.025462858 0.38755539 -0.30858827
297500000 0.74245554 -0.63965303 -6.698823 4.6973944 0.015725072 0.025978839 0.38780501 -0.30985358
298734375 0.73663324 -0.63886404 -6.6559415 4.6847849 0.015897593 0.025689881 0.38850555 -0.309937
299968750 0.73815918 -0.64212883 -6.6701703 4.6906013 0.01645253 0.027050238 0.38763729 -0.3113811
301203125 0.7352525 -0.64325601 -6.6285529 4.7452831 0.016966408 0.025715258 0.38567489 -0.31162867
302437500 0.73336762 -0.64923549 -6.6491141 4.7709441 0.016723696 0.02636943 0.38519916 -0.31491065
303671875 0.7311731 -0.64833695 -6.6277156 4.7726007 0.017074265 0.026156122 0.38431346 -0.3145228
304906250 0.73061967 -0.65333337 -6.6056318 4.7965055 0.017309865 0.026924856 0.38351735 -0.31478491
306140625 0.73167849 -0.6530931 -6.6070104 4.8178144 0.017819146 0.026453407 0.38146266 -0.31691664
307375000 0.72217143 -0.65440762 -6.556334 4.8197765 0.017092573 0.025904343 0.3808344 -0.31748888
308609375 0.72294641 -0.6571663 -6.5591359 4.8469934 0.018592078 0.026769213 0.37993893 -0.3192941
309843750 0.723019 -0.65761018 -6.5853 4.8477926 0.016937083 0.027126117 0.37820464 -0.32150412
311078125 0.72018367 -0.65949643 -6.5615287 4.8377924 0.016969675 0.026988683 0.37859699 -0.32183799
312312500 0.71587771 -0.66362417 -6.5314312 4.8838181 0.017449696 0.026576888 0.37728944 -0.32260549
313546875 0.71679991 -0.66483039 -6.5235438 4.9065819 0.018062195 0.026722081 0.37620026 -0.32313359
314781250 0.71502995 -0.66622031 -6.5084739 4.8999114 0.018827291 0.026492398 0.37564665 -0.32465467
316015625 0.71452767 -0.6680811 -6.5000215 4.9130316 0.018063361 0.026557049 0.37603748 -0.32661989
317250000 0.70715344 -0.66907662 -6.442759 4.9451451 0.018163225 0.027006244 0.37445906 -0.32624581
318484375 0.70640796 -0.67412996 -6.4725175 4.9610977 0.018202728 0.02669432 0.37305337 -0.32930672
319718750 0.70758235 -0.6762979 -6.4600282 4.9806762 0.018280968 0.027214747 0.37003183 -0.32845616
320953125 0.70448923 -0.67484242 -6.4298663 4.9518852 0.018785752 0.026993951 0.37050596 -0.3288452
322187500 0.70352972 -0.68036139 -6.4112325 4.9836516 0.018589038 0.027855074 0.36975801 -0.33034271
323421875 0.6985603 -0.67919713 -6.3891668 5.002336 0.019116895 0.027077287 0.36869889 -0.33121613
324656250 0.69605893 -0.68284363 -6.3638768 5.0271626 0.019458575 0.027654018 0.36711568 -0.33027771
325890625 0.69585812 -0.68133384 -6.3746376 5.0191245 0.018436151 0.02841294 0.36629486 -0.33211464
327125000 0.69187176 -0.68842721 -6.3615408 5.0440516 0.019619709 0.027986035 0.36485639 -0.33316389
328359375 0.69281799 -0.68914169 -6.3515511 5.0576758 0.018626859 0.027383294 0.36354467 -0.33588809
329593750 0.69011384 -0.68945944 -6.3417106 5.0343471 0.018921416 0.027711445 0.36629573 -0.33805382
330828125 0.68692064 -0.69143283 -6.3326654 5.0958133 0.019344596 0.028649712 0.36113459 -0.33716094
332062500 0.68612438 -0.69130439 -6.3149638 5.0988159 0.019259375 0.027568558 0.36197606 -0.33977145
333296875 0.68261576 -0.69505256 -6.2900825 5.0919724 0.020315068 0.028181411 0.36176851 -0.3385008
334531250 0.68014723 -0.69895148 -6.2558413 5.1295004 0.020316275 0.027752105 0.36050022 -0.3383213
335765625 0.67913902 -0.69732302 -6.2404943 5.1112151 0.020612309 0.028125443 0.36050412 -0.33867478
337000000 0.67732108 -0.69956148 -6.2402744 5.1371856 0.020469295 0.027675703 0.35976037 -0.34173819
338234375 0.6761108 -0.70179725 -6.2345257 5.1831365 0.020496972 0.027342243 0.35697472 -0.34332085
339468750 0.67137879 -0.70474792 -6.1999249 5.1716318 0.020351658 0.028136725 0.35621169 -0.34352773
340703125 0.67170489 -0.70503962 -6.2138801 5.1898894 0.021430006 0.02820172 0.35657379 -0.34411541
