!Agilent Technologies,N5227A,US51270349,A.09.80.20
!Agilent N5227A: A.09.80.20
!Date: Friday, May 27, 2022 18:53:55
!Correction: S11(Full 2 Port(1,2)) 
!S21(Full 2 Port(1,2)) 
!S12(Full 2 Port(1,2)) 
!S22(Full 2 Port(1,2)) 
!S2P File: Measurements: S11, S21, S12, S22:
# Hz S  RI   R 50
100000000 0.002186843 0.0026718485 0.98852348 -0.1379866 0.98388797 -0.13829362 0.0013259705 0.00053437456
101234375 -0.0024482226 0.0031828741 0.98632383 -0.13997121 0.98687267 -0.13879398 0.00068032095 0.0062485663
102468750 -0.0077915182 0.00271985 0.9807961 -0.13831867 0.97980356 -0.14006557 0.002646843 0.0078996615
103703125 -0.0015408304 0.0054204417 0.98098826 -0.13881552 0.97983271 -0.14174649 -0.0038161115 0.0062282886
104937500 -0.0032381944 0.0096027749 0.97915107 -0.13834071 0.97842264 -0.14058961 -0.0051965732 0.0032676198
106171875 -0.0058832499 0.0056576398 0.97328436 -0.14441687 0.97742712 -0.14217985 -0.0028402631 0.0056544258
107406250 -0.0081043225 0.0063448995 0.97358441 -0.14284655 0.97312993 -0.144673 -0.010473468 0.0065692626
108640625 -0.010001463 0.0048498223 0.97283059 -0.14577669 0.96986526 -0.14612912 -0.0062740925 0.0097114723
109875000 -0.0095483167 0.0076219575 0.96907055 -0.14426349 0.96971095 -0.14589861 -0.0080746496 0.008906099
111109375 -0.011574333 0.0070507093 0.96963841 -0.14630459 0.96693963 -0.14755175 -0.011283733 0.011325344
112343750 -0.012470312 0.010872304 0.96662688 -0.1447141 0.96540564 -0.14648882 -0.010509501 0.0098193251
113578125 -0.011532439 0.011277741 0.96713364 -0.14850749 0.96593505 -0.14770848 -0.014300522 0.0085223857
114812500 -0.014739538 0.010188893 0.96441686 -0.14921942 0.96491426 -0.14875033 -0.016364833 0.01251911
116046875 -0.017788222 0.010281463 0.96198541 -0.15005785 0.96258062 -0.14986111 -0.014196181 0.015440386
117281250 -0.017208014 0.01199119 0.96067131 -0.14899082 0.96056294 -0.14981143 -0.01726084 0.017629169
118515625 -0.015828094 0.014384317 0.95950025 -0.15069029 0.95722771 -0.14909388 -0.018116826 0.014059127
119750000 -0.018086756 0.016996119 0.95681131 -0.14811742 0.95577335 -0.14966252 -0.015623368 0.015399854
120984375 -0.018704774 0.018277006 0.95478308 -0.14701545 0.95580184 -0.14840384 -0.017473467 0.018525753
122218750 -0.018945364 0.019273108 0.9539389 -0.14779441 0.95546263 -0.14793156 -0.01957369 0.021498319
123453125 -0.022534762 0.022671593 0.9534933 -0.14764644 0.95254284 -0.14843714 -0.02119418 0.021984575
124687500 -0.025409194 0.024086557 0.95240867 -0.14787425 0.94993395 -0.146025 -0.022667298 0.030309187
125921875 -0.026453855 0.028377857 0.94782853 -0.14403448 0.94790089 -0.14402725 -0.022930838 0.029985389
127156250 -0.025499625 0.033767395 0.94758725 -0.13992959 0.94654834 -0.14028478 -0.026511395 0.03252624
128390625 -0.030375766 0.039213959 0.94432515 -0.13493748 0.94386894 -0.13576002 -0.029876316 0.042392898
129625000 -0.031978991 0.047468878 0.94149548 -0.12905745 0.94019574 -0.12812643 -0.02666649 0.052169915
130859375 -0.032651491 0.058060151 0.94161111 -0.11712515 0.94068587 -0.11526243 -0.029485326 0.060417615
132093750 -0.034108609 0.077013202 0.94301927 -0.099470347 0.94209421 -0.098602295 -0.023949761 0.079005823
133328125 -0.02361916 0.10636701 0.95539689 -0.074020147 0.95514029 -0.073297068 -0.014592567 0.10577823
134562500 0.013086255 0.14016047 0.99436593 -0.043801378 0.99536902 -0.042515248 0.021998679 0.13078754
135796875 0.09264911 0.13804966 1.0713966 -0.050039012 1.0721772 -0.050359707 0.094255738 0.12557143
137031250 0.13392004 0.061915539 1.1156898 -0.12889266 1.1150266 -0.12860282 0.13407333 0.056005169
138265625 0.10755718 0.0035064544 1.0904135 -0.18920198 1.0905764 -0.18890318 0.1105077 0.00275381
139500000 0.081138492 -0.013183223 1.0593125 -0.2097325 1.0584121 -0.21098068 0.08101812 -0.014474897
140734375 0.062344532 -0.016134491 1.0376419 -0.21662673 1.0360558 -0.21788792 0.061809171 -0.025046928
141968750 0.047143191 -0.017643185 1.0227487 -0.22162245 1.0222811 -0.220469 0.046155024 -0.021494338
143203125 0.038226746 -0.015661627 1.0110853 -0.22094728 1.0114946 -0.22127137 0.039800812 -0.020302769
144437500 0.029885581 -0.01592567 1.003552 -0.22118804 1.0036082 -0.22051728 0.032510892 -0.019218318
145671875 0.026123032 -0.013212553 0.99806291 -0.21993925 0.9976024 -0.22061644 0.027885489 -0.019074261
146906250 0.02394164 -0.013802619 0.99352944 -0.22095425 0.99261874 -0.22174507 0.024496477 -0.014323082
148140625 0.019296687 -0.012782276 0.98958397 -0.22173487 0.9899056 -0.22152704 0.021275882 -0.01252607
149375000 0.015236412 -0.010535422 0.98631531 -0.22149253 0.98625052 -0.22184229 0.019589258 -0.012435201
150609375 0.014327331 -0.010340826 0.98430949 -0.22209863 0.98410279 -0.22200346 0.015817029 -0.012063493
151843750 0.011893511 -0.0084429644 0.98144776 -0.22226311 0.98246711 -0.22272344 0.014867704 -0.010636347
153078125 0.011703908 -0.0092869159 0.9803043 -0.22417587 0.9793095 -0.22391176 0.013338742 -0.0084282039
154312500 0.0094175423 -0.0070379744 0.97905713 -0.22496545 0.97926164 -0.22459295 0.011501519 -0.0089863623
155546875 0.009611466 -0.006708839 0.97714895 -0.22656398 0.97691053 -0.22623858 0.011777441 -0.0069650603
156781250 0.0069090449 -0.0065843291 0.97599399 -0.22572491 0.9767769 -0.22580518 0.0096608261 -0.01014223
158015625 0.0085830754 -0.0058088959 0.97437847 -0.22758399 0.97533685 -0.22849947 0.00877559 -0.0055708447
159250000 0.0070042321 -0.0066283629 0.97437501 -0.22897795 0.97289807 -0.22912921 0.0071704513 -0.0042502498
160484375 0.0066093821 -0.0049143718 0.97239041 -0.2305083 0.97257948 -0.22998728 0.0085191736 -0.0057718512
161718750 0.0064850803 -0.0049111075 0.97147352 -0.2325726 0.97193772 -0.23188882 0.0067753652 -0.0063565965
162953125 0.006114678 -0.0050694188 0.97137868 -0.23231934 0.9705925 -0.23235953 0.0066426615 -0.0052217599
164187500 0.0053996551 -0.0043597105 0.96999317 -0.23546427 0.97032094 -0.23379081 0.0067255502 -0.0028284199
165421875 0.0060061058 -0.0030638059 0.96779621 -0.23474483 0.96835667 -0.23531178 0.0069289049 -0.0070375814
166656250 0.0048514777 -0.0022477757 0.96800619 -0.23563063 0.96865124 -0.23676932 0.004882297 -0.0064206398
167890625 0.0025679984 -0.0043153334 0.96735978 -0.23753308 0.96798849 -0.23726551 0.0050855526 -0.0063125035
169125000 0.0052910838 -0.0044915848 0.96690685 -0.23923795 0.96644562 -0.23838454 0.0047697974 -0.0024564948
170359375 0.0041542999 -0.0016480794 0.96614099 -0.23989409 0.96616662 -0.23941518 0.0051418035 -0.0065640514
171593750 0.0038766512 -0.0017245361 0.96510839 -0.24077205 0.96546721 -0.24197933 0.0035976546 -0.0057209581
172828125 0.0022973553 -0.0024831553 0.9651674 -0.24278583 0.96282095 -0.2432418 0.0036210725 -0.0057447925
174062500 0.0028560234 -0.0022814414 0.96279842 -0.24469879 0.96309513 -0.24444993 0.0044632512 -0.0038478281
175296875 0.0028621687 -0.0018124111 0.96422797 -0.24867654 0.96351218 -0.24493428 0.0022738236 -0.0035738042
176531250 0.0023163976 -0.0026707985 0.96272391 -0.24523048 0.96306098 -0.24458973 0.0016980352 -0.0050608641
177765625 0.00084830757 -0.0012937712 0.96460414 -0.24713749 0.96216375 -0.24952029 0.00086552836 -0.004864126
179000000 -0.0013711369 -0.0012710495 0.95857346 -0.24817099 0.96004301 -0.24992411 0.0081693539 -0.006405985
180234375 -0.0011820896 -0.005275534 0.96005929 -0.25334769 0.9604283 -0.25104836 0.0053538564 0.0022180665
181468750 0.0012967634 -0.0026229231 0.96055716 -0.25231895 0.95918208 -0.25230947 0.0040616272 -0.002231749
182703125 0.00092241692 -0.0025897301 0.9596315 -0.25467944 0.95955408 -0.25457335 0.0034818314 0.00031827515
183937500 -0.00020421931 -0.0028233819 0.95832765 -0.25619093 0.95943499 -0.25646225 0.0040154061 -0.0011431703
185171875 0.00013276447 -0.00063261832 0.95746911 -0.25700244 0.95883417 -0.25819457 0.003816688 -0.0005496571
186406250 -0.00040418695 -0.0033150297 0.95650548 -0.25481835 0.95794821 -0.25498167 0.0030083868 -0.0057666362
187640625 0.00056885858 -0.00034586695 0.95910817 -0.26045644 0.95623374 -0.25971901 0.0029127866 0.00020364561
188875000 0.0014410154 0.00042906465 0.95393991 -0.25849351 0.9546603 -0.25637722 0.0014052604 -0.0031102472
190109375 0.0012861294 -0.0037163899 0.95576835 -0.26250082 0.95637691 -0.26208976 -0.00022506871 0.0036877966
191343750 6.4271975e-005 0.0013560537 0.95564401 -0.26175663 0.95476609 -0.2626496 0.0043230494 0.0016706225
192578125 0.0014107623 0.0012595386 0.95558846 -0.26282251 0.95386398 -0.26461527 0.0050179395 0.00083918573
193812500 -0.00016519956 0.0023991743 0.95361644 -0.26413038 0.95514297 -0.26089555 0.0052765701 0.0015707086
195046875 -0.0004928069 0.0063939095 0.95423353 -0.26263216 0.95314682 -0.26201287 0.0056146933 -0.0025289943
196281250 0.0014249199 0.0036942735 0.95487756 -0.26392618 0.95411009 -0.2633445 0.0045684613 0.0035922502
197515625 0.0044283355 0.0079113385 0.95534313 -0.26147252 0.95317239 -0.26072794 0.0043636276 0.001982261
198750000 0.0060545374 0.0080831097 0.9584741 -0.26092571 0.95736426 -0.26043361 0.0036530611 0.0072278371
199984375 0.0092991842 0.012534269 0.9612698 -0.25993365 0.96086103 -0.25781718 0.01125546 0.0070580393
201218750 0.015565302 0.012830335 0.96572459 -0.26284248 0.96665519 -0.26105267 0.016657293 0.012481173
202453125 0.025181485 0.0075022504 0.97684276 -0.26751891 0.97489715 -0.26817736 0.02284787 0.0075067263
203687500 0.023857908 -0.0025082603 0.9760735 -0.28019959 0.97645295 -0.28079477 0.0309771 -0.0027551467
204921875 0.021340171 -0.01109566 0.97430688 -0.29003072 0.97276115 -0.29022259 0.023298144 -0.011571884
206156250 0.016773708 -0.012473325 0.96721536 -0.29571119 0.96600169 -0.29566249 0.019063877 -0.013556085
207390625 0.014798535 -0.010399111 0.96152467 -0.2973173 0.96257204 -0.29753271 0.014464164 -0.014792337
208625000 0.011502291 -0.0098875724 0.95948076 -0.29778022 0.95763153 -0.29902261 0.015452258 -0.017154431
209859375 0.011041274 -0.013535191 0.95489365 -0.30090436 0.95616817 -0.29840055 0.011277748 -0.016514875
211093750 0.012487725 -0.012291426 0.95668626 -0.3017298 0.95320207 -0.30000627 0.0081213489 -0.014684061
212328125 0.0087759933 -0.012401291 0.95391494 -0.3022303 0.95355511 -0.30084047 0.0063190954 -0.013393958
213562500 0.0068181725 -0.0086227674 0.95000911 -0.30322549 0.95092082 -0.30459651 0.0094158612 -0.013915617
214796875 0.0090006385 -0.011106741 0.94812018 -0.3033345 0.94979382 -0.30497772 0.0064955018 -0.012961535
216031250 0.0046005477 -0.012786824 0.9486165 -0.30617133 0.94900179 -0.30598131 0.0087846173 -0.010694017
217265625 0.0065046395 -0.013126749 0.9481324 -0.30779913 0.94745177 -0.30651978 0.0076717199 -0.011036663
218500000 0.0047884821 -0.010489557 0.94741124 -0.30826831 0.946706 -0.3083494 0.0051041581 -0.0092670266
219734375 0.0059606074 -0.010586947 0.94672567 -0.31094021 0.94646347 -0.30891377 0.0045736493 -0.01208698
220968750 0.0054002441 -0.011659415 0.94386131 -0.31134129 0.94474077 -0.31167951 0.0089939479 -0.0095359655
222203125 0.0044410061 -0.0088142008 0.94489855 -0.31189558 0.94480711 -0.31235284 0.0063163121 -0.011744627
223437500 0.0039155134 -0.0065557328 0.94281512 -0.31378719 0.94370532 -0.31356171 0.0087144105 -0.010133789
224671875 0.0048251231 -0.011257253 0.94427794 -0.31534433 0.94435328 -0.31411213 0.0025548711 -0.010589408
225906250 0.0040208572 -0.0094498741 0.94047815 -0.31590918 0.94277859 -0.31698564 0.0055578472 -0.01191631
227140625 0.0038595649 -0.0096033057 0.94307083 -0.31801435 0.94124883 -0.31751531 0.0053076679 -0.010789698
228375000 0.0051377271 -0.012059727 0.94118357 -0.32019392 0.9398858 -0.31911054 0.0049497765 -0.0091718975
229609375 0.0024854261 -0.0093235644 0.9395656 -0.31886902 0.94157422 -0.32144451 0.0075491108 -0.012443724
230843750 0.0028876569 -0.0091399187 0.93854576 -0.32156965 0.93939501 -0.32197556 0.0049774209 -0.011679639
232078125 0.0048144725 -0.010360685 0.93682569 -0.32349369 0.93843067 -0.3245568 0.0058042444 -0.010334903
233312500 0.0022028135 -0.0092685111 0.93884879 -0.32397717 0.93718964 -0.32563969 0.0080160722 -0.012666796
234546875 0.0013083821 -0.010305879 0.93606728 -0.32693645 0.93666655 -0.3273167 0.0092426529 -0.0083829071
235781250 0.0041431733 -0.0091289878 0.93721044 -0.32901087 0.9379499 -0.32868305 0.0028815654 -0.0090372805
237015625 0.0036802762 -0.0095958933 0.9355762 -0.32899079 0.93591607 -0.32958999 0.0045085019 -0.010425679
238250000 0.0043079755 -0.009478542 0.93492919 -0.33315796 0.93509459 -0.33192003 0.0044609741 -0.0069090328
239484375 0.0043277517 -0.010187705 0.93541896 -0.33220619 0.93657702 -0.33284751 0.0027302618 -0.010832768
240718750 0.0034853965 -0.0070487587 0.93327397 -0.33326289 0.93413073 -0.33364677 0.0040387549 -0.011820451
241953125 0.0029108033 -0.0081969639 0.93356884 -0.33533087 0.93400919 -0.33669817 0.0048555057 -0.0085398192
243187500 0.0054278816 -0.0065483833 0.93337023 -0.33728299 0.93144405 -0.33652231 0.0066023055 -0.011261617
244421875 0.0032154145 -0.0094473111 0.93010402 -0.33972964 0.93232119 -0.33855563 0.0082502998 -0.0088277431
245656250 0.0039655319 -0.0066604083 0.93175274 -0.3412526 0.93104953 -0.3414343 0.0045445738 -0.0089517683
246890625 0.003410233 -0.010432968 0.92964822 -0.34318671 0.93110836 -0.3426924 0.0057838494 -0.0032666218
248125000 0.0040425202 -0.0069945245 0.92956418 -0.34249184 0.93033308 -0.34367457 0.0054367767 -0.010385557
249359375 0.0053358385 -0.0086222785 0.92967516 -0.34516552 0.92987376 -0.34413949 0.0042501879 -0.010122473
250593750 -0.00043453561 -0.0069032442 0.92766333 -0.34489965 0.92892677 -0.34511375 0.0053292438 -0.011288947
251828125 0.0043720109 -0.010485249 0.92760402 -0.34789062 0.9314034 -0.34655681 0.0016180738 -0.010349493
253062500 0.0048915772 -0.0066773081 0.92807078 -0.34725428 0.92842656 -0.35070151 0.0065666502 -0.010524301
254296875 0.0023986034 -0.0056684045 0.92480844 -0.34928909 0.92726159 -0.35198998 0.0063826325 -0.010067011
255531250 -0.0011435081 -0.0099417288 0.92554879 -0.35508537 0.9254868 -0.35329205 0.0057199346 -0.0049500363
256765625 0.0015322872 -0.0057229293 0.92623621 -0.3534911 0.92398208 -0.35585266 0.0061997618 -0.0097010043
258000000 0.0039277258 -0.011730932 0.92540884 -0.35582915 0.92589557 -0.3537035 0.0028424314 -0.0087994523
259234375 0.0016313886 -0.0083762053 0.92562413 -0.35999793 0.92685634 -0.3574335 0.0018940468 -0.0082937377
260468750 0.0037621239 -0.0046795309 0.92497253 -0.35927981 0.92464095 -0.3589527 0.0030818752 -0.006618375
261703125 -0.001372061 -0.010428269 0.92241329 -0.35996735 0.92463517 -0.36291048 0.0048589432 -0.0033298715
262937500 0.0023945868 -0.010618028 0.92393249 -0.36320287 0.92181718 -0.35978103 0.0031985207 -0.0064436477
264171875 0.00069259206 -0.010069042 0.92293972 -0.36153311 0.92493576 -0.36138713 0.0050200475 -0.01033916
265406250 0.0025955033 -0.0069666374 0.92176104 -0.36396417 0.92178893 -0.36337823 0.008120833 -0.0067867469
266640625 0.0039411215 -0.007545643 0.91953868 -0.3660281 0.9210754 -0.36445293 0.0057633524 -0.0095581468
267875000 0.0053610462 -0.0084852511 0.92300957 -0.36515239 0.92032838 -0.36525446 0.0069488664 -0.010941656
269109375 0.006556863 -0.0067161401 0.92301416 -0.36792374 0.92207545 -0.36535576 0.0049706092 -0.011209347
270343750 0.0078909192 -0.0069928458 0.92326492 -0.36658418 0.92070901 -0.36936089 0.0067092101 -0.011374759
271578125 0.0036833438 -0.0051355176 0.91850102 -0.36818203 0.92186093 -0.372587 0.0099448692 -0.01170292
272812500 0.0064429007 -0.0093248095 0.92108983 -0.37188324 0.91958237 -0.37269866 0.0086816074 -0.008259329
274046875 0.0078371679 -0.010554953 0.92392462 -0.37346298 0.92178726 -0.37493095 0.0073442706 -0.014651167
275281250 0.0051819831 -0.0071485061 0.92056847 -0.37589923 0.92105424 -0.37993515 0.0092843799 -0.010587236
276515625 0.0049661407 -0.010540004 0.91934621 -0.38232347 0.91948503 -0.37862575 0.011798364 -0.013986339
277750000 0.0050814799 -0.0094268536 0.91984218 -0.38402572 0.918823 -0.38315132 0.006209773 -0.014565885
278984375 0.0047738343 -0.014024105 0.91755271 -0.38690925 0.91513652 -0.38642684 0.0088395523 -0.0095494837
280218750 0.0043674908 -0.011670706 0.91580725 -0.38518393 0.91520113 -0.38773632 0.0058186688 -0.020966014
281453125 0.0060681431 -0.010740009 0.91469002 -0.38817292 0.91318381 -0.38709104 0.0016466805 -0.014548356
282687500 0.0010228753 -0.011472252 0.91189528 -0.39119637 0.91279668 -0.39013574 0.0044251792 -0.012841016
283921875 0.0027470961 -0.012286277 0.91195959 -0.39378819 0.91231585 -0.39002022 0.002100463 -0.015338216
285156250 0.0054870653 -0.011648665 0.91188419 -0.39325887 0.9105379 -0.39217818 0.0029273918 -0.014171414
286390625 0.0069325618 -0.010511074 0.9096334 -0.39197659 0.90913928 -0.39286035 0.0038340015 -0.021048509
287625000 0.00022991931 -0.010263134 0.91108394 -0.39509335 0.90707117 -0.39592618 0.0096081309 -0.011911775
288859375 0.0036331627 -0.011770299 0.90805441 -0.39590496 0.90974891 -0.39842546 0.003701186 -0.018149508
290093750 0.0035639775 -0.012795511 0.90893722 -0.39915279 0.90612656 -0.39668661 0.0034823513 -0.01284956
291328125 0.0031120242 -0.014350692 0.90560097 -0.39994416 0.90571362 -0.39848256 0.0040910365 -0.013837131
292562500 0.0014720645 -0.012633673 0.90889311 -0.40067214 0.90594083 -0.40253836 0.0010428346 -0.012978177
293796875 -0.00086290983 -0.01368033 0.90590376 -0.40288493 0.90605336 -0.40391573 0.0036014542 -0.015077332
295031250 0.0027814885 -0.014292178 0.90407437 -0.40557104 0.9030742 -0.40187037 0.0047951811 -0.0097866766
296265625 0.0025261207 -0.010412499 0.90288341 -0.40685362 0.90354985 -0.40340665 0.0056514228 -0.017010476
297500000 0.0019574605 -0.011160205 0.90385026 -0.40834323 0.90150648 -0.40811348 0.0037390604 -0.011822843
298734375 0.0030998385 -0.014679595 0.89970928 -0.40730181 0.90203387 -0.40973112 0.0021293792 -0.011541396
299968750 0.00062346522 -0.013761502 0.90042603 -0.40973336 0.90209323 -0.40978765 0.0011455626 -0.010530817
301203125 0.0019684082 -0.013803524 0.89928269 -0.41260839 0.90190417 -0.4109554 0.0018794116 -0.015448011
302437500 0.0016217816 -0.011076444 0.8971734 -0.41352335 0.89819127 -0.41370454 0.0064694611 -0.013593817
303671875 -0.0025805167 -0.013774269 0.8990646 -0.41667521 0.89824748 -0.4144626 0.004089586 -0.013476805
304906250 0.00017975824 -0.015013654 0.89914888 -0.41604361 0.89715153 -0.41559604 0.0028453381 -0.012811772
306140625 0.00058737665 -0.012152165 0.89904326 -0.4156988 0.8981182 -0.41661808 0.0035055634 -0.016935999
307375000 0.00062543218 -0.014938808 0.89482689 -0.42063269 0.89585102 -0.41768211 0.00075245486 -0.013971765
308609375 0.0029556472 -0.011902944 0.89568341 -0.41962346 0.89620668 -0.41969508 0.0046278327 -0.018397057
309843750 0.0015530481 -0.013035124 0.89267659 -0.42181593 0.89148414 -0.42021155 0.0069332141 -0.014084086
311078125 0.0014802127 -0.012260168 0.89356571 -0.42392287 0.89421171 -0.42272705 0.0034403871 -0.010388261
312312500 0.0017621674 -0.013968255 0.89324456 -0.42496067 0.89339137 -0.42468804 0.0038798554 -0.015693491
313546875 0.0023290897 -0.011350399 0.89263356 -0.42444214 0.89104676 -0.42591852 0.0075676553 -0.016834939
314781250 -0.00016939781 -0.013702917 0.89249879 -0.42702034 0.89120108 -0.42547163 0.0058550132 -0.016064877
316015625 -0.00033350586 -0.014823392 0.89010024 -0.42834884 0.89121306 -0.43031609 0.0079750381 -0.015283727
317250000 1.3041185e-006 -0.015160536 0.89072686 -0.43149215 0.88903773 -0.42824224 0.0013856738 -0.017126385
318484375 0.00038782813 -0.015686564 0.88861203 -0.43331432 0.88873523 -0.43374234 0.006906081 -0.016063726
319718750 -0.00025711997 -0.01416203 0.88924569 -0.43142137 0.89047271 -0.43183991 0.0074808714 -0.018302185
320953125 0.00017264744 -0.014381191 0.88744414 -0.43562433 0.88705987 -0.43480214 0.00080843514 -0.012973239
322187500 0.0028407441 -0.012077666 0.88913876 -0.43633163 0.88906807 -0.43873453 0.0022040408 -0.0177275
323421875 -5.1051466e-005 -0.012306061 0.88619334 -0.43493029 0.88586617 -0.439367 0.004702291 -0.018175865
324656250 0.0021297506 -0.015420959 0.8854177 -0.43983793 0.88692451 -0.44021904 0.0015105706 -0.018687751
