# MHz S RI R 50

1.000000000000000e+00  1.9764445480886814e-01 -2.4822698890835632e-01  6.3668882621324885e-01 -2.4315709591364798e-01  6.3668882621324885e-01 -2.4315709591364776e-01  1.9686263610263613e-01 -2.6640158139697889e-01
1.098196392785571e+00  1.8259577073552896e-01 -2.6706505281196086e-01  6.2168072934568275e-01 -2.6149819003586916e-01  6.2168072934568297e-01 -2.6149819003586916e-01  1.8165400367828077e-01 -2.8701510795687363e-01
1.196392785571142e+00  1.6682524859411277e-01 -2.8462372269986885e-01  6.0595469558271797e-01 -2.7856018930763449e-01  6.0595469558271786e-01 -2.7856018930763449e-01  1.6570896092683143e-01 -3.0634676875705535e-01
1.294589178356713e+00  1.5046519643859230e-01 -3.0088919742960468e-01  5.8964305005259965e-01 -2.9432933868291999e-01  5.8964305005259987e-01 -2.9432933868292016e-01  1.4915990200255871e-01 -3.2438258463580005e-01
1.392785571142285e+00  1.3364273652155412e-01 -3.1586267397483886e-01  5.7287293026142405e-01 -3.0880688403406464e-01  5.7287293026142438e-01 -3.0880688403406464e-01  1.3213403594932294e-01 -3.4112358124757886e-01
1.490981963927856e+00  1.1647817159258388e-01 -3.2955867750808376e-01  5.5576465206970826e-01 -3.2200740188479371e-01  5.5576465206970849e-01 -3.2200740188479376e-01  1.1475175232766387e-01 -3.5658411853274669e-01
1.589178356713427e+00  9.9083741964063998e-02 -3.4200327700222222e-01  5.3843046651491844e-01 -3.3395701463932376e-01  5.3843046651491855e-01 -3.3395701463932376e-01  9.7125377764349347e-02 -3.7079010565974380e-01
1.687374749498998e+00  8.1562754747981345e-02 -3.5323226586598133e-01  5.2097368887981632e-01 -3.4469157083857044e-01  5.2097368887981621e-01 -3.4469157083857038e-01  7.9358304820539571e-02 -3.8377718098669639e-01
1.785571142284569e+00  6.4009053409537275e-02 -3.6328937429691016e-01  5.0348816814605368e-01 -3.5425485714037613e-01  5.0348816814605357e-01 -3.5425485714037624e-01  6.1544461311659159e-02 -3.9558892375262661e-01
1.883767535070140e+00  4.6506787016145100e-02 -3.7222456611194393e-01  4.8605805620345693e-01 -3.6269689479439687e-01  4.8605805620345677e-01 -3.6269689479439676e-01  4.3768079441302121e-02 -4.0627515027942601e-01
1.981963927855711e+00  2.9130433851794639e-02 -3.8009245899134020e-01  4.6875783147590905e-01 -3.7007235955523177e-01  4.6875783147590933e-01 -3.7007235955523177e-01  2.6103719401044931e-02 -4.1589033363592226e-01
2.080160320641282e+00  1.1945032768124066e-02 -3.8695089423021967e-01  4.5165253032584668e-01 -3.7643915113326948e-01  4.5165253032584679e-01 -3.7643915113326942e-01  8.6165007888789353e-03 -4.2449217286868618e-01
2.178356713426854e+00 -4.9934229906569540e-03 -3.9285967081118439e-01  4.3479814096543856e-01 -3.8185712699967467e-01  4.3479814096543851e-01 -3.8185712699967461e-01 -8.6375034346999335e-03 -4.3214032661893342e-01
2.276553106212425e+00 -2.1637471469261232e-02 -3.9787944919795770e-01  4.1824211788578730e-01 -3.8638700594656961e-01  4.1824211788578741e-01 -3.8638700594656950e-01 -2.5610752449967980e-02 -4.3889531652760877e-01
2.374749498997994e+00 -3.7947584653681851e-02 -4.0207082279050926e-01  4.0202397933219780e-01 -3.9008943934246260e-01  4.0202397933219802e-01 -3.9008943934246276e-01 -4.2263640020039600e-02 -4.4481759836825213e-01
2.472945891783567e+00 -5.3891520390537850e-02 -4.0549354940123455e-01  3.8617595552292128e-01 -3.9302424244096584e-01  3.8617595552292139e-01 -3.9302424244096595e-01 -5.8563846180745345e-02 -4.4996679326412614e-01
2.571142284569138e+00 -6.9443650509673230e-02 -4.0820593122692234e-01  3.7072366066972251e-01 -3.9524977421524726e-01  3.7072366066972257e-01 -3.9524977421524748e-01 -7.4485665125322023e-02 -4.5440106745971331e-01
2.669338677354709e+00 -8.4584286876260656e-02 -4.1026432936009904e-01  3.5568676706965069e-01 -3.9682245175902670e-01  3.5568676706965080e-01 -3.9682245175902664e-01 -9.0009331018858690e-02 -4.5817664668453884e-01
2.767535070140281e+00 -9.9299022271085835e-02 -4.1172279764078723e-01  3.4107966436596004e-01 -3.9779638405210394e-01  3.4107966436596004e-01 -3.9779638405210388e-01 -1.0512035864788388e-01 -4.6134744990426463e-01
2.865731462925851e+00 -1.1357809869312289e-01 -4.1263282033484139e-01  3.2691209138154209e-01 -3.9822310957350049e-01  3.2691209138154226e-01 -3.9822310957350066e-01 -1.1980891150422837e-01 -4.6396482693897573e-01
2.963927855711423e+00 -1.2741581196455093e-01 -4.1304313849853380e-01  3.1318973164292879e-01 -3.9815142261886205e-01  3.1318973164292840e-01 -3.9815142261886216e-01 -1.3406920618683307e-01 -4.6607738480224964e-01
3.062124248496994e+00 -1.4080995840819857e-01 -4.1299965074303280e-01  2.9991476682371981e-01 -3.9762727403291032e-01  2.9991476682372004e-01 -3.9762727403291043e-01 -1.4789895889376889e-01 -4.6773088846891281e-01
3.160320641282565e+00 -1.5376132683634725e-01 -4.1254537527426294e-01  2.8708638486785404e-01 -3.9669373322981649e-01  2.8708638486785409e-01 -3.9669373322981633e-01 -1.6129887724465780e-01 -4.6896822294170309e-01
3.258517034068136e+00 -1.6627323708911951e-01 -4.1172046141595997e-01  2.7470124155422349e-01 -3.9539099970696112e-01  2.7470124155422332e-01 -3.9539099970696123e-01 -1.7427219867220350e-01 -4.6982940481989438e-01
3.356713426853707e+00 -1.7835112482848561e-01 -4.1056224022164900e-01  2.6275387579667075e-01 -3.9375645365572454e-01  2.6275387579667081e-01 -3.9375645365572443e-01 -1.8682427508868832e-01 -4.7035163297145838e-01
3.454909819639278e+00 -1.9000217116307536e-01 -4.0910530516821664e-01  2.5123708010443757e-01 -3.9182473666019563e-01  2.5123708010443757e-01 -3.9182473666019585e-01 -1.9896220240204590e-01 -4.7056936929778581e-01
3.553106212424848e+00 -2.0123497488304312e-01 -4.0738161524688404e-01  2.4014222842426480e-01 -3.8962785479806333e-01  2.4014222842426480e-01 -3.8962785479806333e-01 -2.1069449265982218e-01 -4.7051444190369573e-01
3.651302605210421e+00 -2.1205926456070132e-01 -4.0542061399286961e-01  2.2945956410896037e-01 -3.8719529768369781e-01  2.2945956410896032e-01 -3.8719529768369770e-01 -2.2203078607561191e-01 -4.7021616421141477e-01
3.749498997995992e+00 -2.2248564746541150e-01 -4.0324935910376508e-01  2.1917845106455208e-01 -3.8455416810237869e-01  2.1917845106455225e-01 -3.8455416810237880e-01 -2.3298159988520667e-01 -4.6970146466639195e-01
3.847695390781563e+00 -2.3252539210138501e-01 -4.0089265828050391e-01  2.0928759126800037e-01 -3.8172931786867970e-01  2.0928759126800051e-01 -3.8172931786867975e-01 -2.4355811083979165e-01 -4.6899502266707233e-01
3.945891783567133e+00 -2.4219024116313589e-01 -3.9837320778352814e-01  1.9977521186135694e-01 -3.7874348640091715e-01  1.9977521186135708e-01 -3.7874348640091743e-01 -2.5377196812962149e-01 -4.6811940720980877e-01
4.044088176352705e+00 -2.5149225178104667e-01 -3.9571173093539969e-01  1.9062922495052895e-01 -3.7561743924236213e-01  1.9062922495052911e-01 -3.7561743924236202e-01 -2.6363513360934965e-01 -4.6709521547904459e-01
4.142284569138276e+00 -2.6044366007103742e-01 -3.9292711442812778e-01  1.8183736309524190e-01 -3.7237010438705498e-01  1.8183736309524190e-01 -3.7237010438705498e-01 -2.7315974633776363e-01 -4.6594120924016769e-01
4.240480961923847e+00 -2.6905676718562765e-01 -3.9003654081920586e-01  1.7338729329346814e-01 -3.6901870479390619e-01  1.7338729329346805e-01 -3.6901870479390619e-01 -2.8235800862807081e-01 -4.6467444741837211e-01
4.338677354709417e+00 -2.7734384427161807e-01 -3.8705561603594313e-01  1.6526671205559296e-01 -3.6557888590842397e-01  1.6526671205559301e-01 -3.6557888590842408e-01 -2.9124209101288451e-01 -4.6331041368263137e-01
4.436873747494990e+00 -2.8531705395923129e-01 -3.8399849106432515e-01  1.5746342394395582e-01 -3.6206483736815004e-01  1.5746342394395579e-01 -3.6206483736814998e-01 -2.9982405374775783e-01 -4.6186313821067965e-01
4.535070140280562e+00 -2.9298838622917767e-01 -3.8087797728714873e-01  1.4996540573171371e-01 -3.5848940835643478e-01  1.4996540573171385e-01 -3.5848940835643472e-01 -3.0811578269884160e-01 -4.6034531309952320e-01
4.633266533066131e+00 -3.0036960672092172e-01 -3.7770565516651655e-01  1.4276085811813066e-01 -3.5486421629958914e-01  1.4276085811813066e-01 -3.5486421629958914e-01 -3.1612893767713079e-01 -4.5876840111644424e-01
4.731462925851702e+00 -3.0747221575266637e-01 -3.7449197614709090e-01  1.3583824673011363e-01 -3.5119974878377558e-01  1.3583824673011363e-01 -3.5119974878377558e-01 -3.2387491148908454e-01 -4.5714273766683916e-01
4.829659318637274e+00 -3.1430741651819466e-01 -3.7124635779682319e-01  1.2918633394514981e-01 -3.4750545870837235e-01  1.2918633394514981e-01 -3.4750545870837207e-01 -3.3136479816811654e-01 -4.5547762599560959e-01
4.927855711422844e+00 -3.2088609110594185e-01 -3.6797727230833299e-01  1.2279420289053475e-01 -3.4378985279899948e-01  1.2279420289053489e-01 -3.4378985279899960e-01 -3.3860936903174665e-01 -4.5378142574532987e-01
5.026052104208417e+00 -3.2721878315068659e-01 -3.6469232856280448e-01  1.1665127480873079e-01 -3.4006057368212256e-01  1.1665127480873085e-01 -3.4006057368212267e-01 -3.4561905537429383e-01 -4.5206163507313651e-01
5.124248496993988e+00 -3.3331568607790751e-01 -3.6139834801445525e-01  1.1074732082900730e-01 -3.3632447577933816e-01  1.1074732082900730e-01 -3.3632447577933816e-01 -3.5240393675470477e-01 -4.5032496658449916e-01
5.222444889779558e+00 -3.3918663603551336e-01 -3.5810143469174560e-01  1.0507246905082572e-01 -3.3258769531756527e-01  1.0507246905082571e-01 -3.3258769531756521e-01 -3.5897373397383125e-01 -4.4857741738015922e-01
5.320641282565130e+00 -3.4484110872800050e-01 -3.5480703963524324e-01  9.9617207724063558e-02 -3.2885571477512698e-01  9.9617207724063600e-02 -3.2885571477512715e-01 -3.6533780595585980e-01 -4.4682433353627987e-01
5.418837675350701e+00 -3.5028821947500982e-01 -3.5152002010454747e-01  9.4372385204230635e-02 -3.2513342209618756e-01  9.4372385204230899e-02 -3.2513342209618740e-01 -3.7150514985556021e-01 -4.4507046935034938e-01
5.517034068136272e+00 -3.5553672591075686e-01 -3.4824469389045076e-01  8.9329207266310523e-02 -3.2142516500979013e-01  8.9329207266310329e-02 -3.2142516500979001e-01 -3.7748440380756415e-01 -4.4332004168915573e-01
5.615230460921843e+00 -3.6059503282396654e-01 -3.4498488906566122e-01  8.4479232277689192e-02 -3.1773480078688515e-01  8.4479232277689040e-02 -3.1773480078688515e-01 -3.8328385181706304e-01 -4.4157677977228932e-01
5.713426853707414e+00 -3.6547119871079470e-01 -3.4174398949962725e-01  7.9814364657758818e-02 -3.1406574176095242e-01  7.9814364657758957e-02 -3.1406574176095237e-01 -3.8891143036421466e-01 -4.3984397071685505e-01
5.811623246492984e+00 -3.7017294367685033e-01 -3.3852497645165680e-01  7.5326846988157281e-02 -3.1042099692647002e-01  7.5326846988157406e-02 -3.1042099692646991e-01 -3.9437473635818127e-01 -4.3812450115771945e-01
5.909819639278557e+00 -3.7470765837975839e-01 -3.3533046654269666e-01  7.1009251082241473e-02 -3.0680320991565718e-01  7.1009251082241473e-02 -3.0680320991565718e-01 -3.9968103613209816e-01 -4.3642089524378419e-01
6.008016032064128e+00 -3.7908241375173241e-01 -3.3216274639071569e-01  6.6854468274381032e-02 -3.0321469363848252e-01  6.6854468274381032e-02 -3.0321469363848252e-01 -4.0483727521829266e-01 -4.3473534929535224e-01
6.106212424849698e+00 -3.8330397128313365e-01 -3.2902380417824301e-01  6.2855699148125790e-02 -2.9965746185454595e-01  6.2855699148125790e-02 -2.9965746185454595e-01 -4.0985008868462114e-01 -4.3306976339125547e-01
6.204408817635270e+00 -3.8737879368379596e-01 -3.2591535840384250e-01  5.9006442886494370e-02 -2.9613325792866108e-01  5.9006442886494391e-02 -2.9613325792866119e-01 -4.1472581184859425e-01 -4.3142577013764194e-01
6.302605210420841e+00 -3.9131305576969122e-01 -3.2283888405248939e-01  5.5300486396833000e-02 -2.9264358100514670e-01  5.5300486396833000e-02 -2.9264358100514670e-01 -4.1947049121677726e-01 -4.2980476085348435e-01
6.400801603206411e+00 -3.9511265544892243e-01 -3.1979563640329317e-01  5.1731893336275377e-02 -2.8918970981931069e-01  5.1731893336275397e-02 -2.8918970981931080e-01 -4.2408989552337079e-01 -4.2820790939135739e-01
6.498997995991983e+00 -3.9878322470361705e-01 -3.1678667267696775e-01  4.8294993141241062e-02 -2.8577272434856837e-01  4.8294993141241041e-02 -2.8577272434856826e-01 -4.2858952676447537e-01 -4.2663619379598483e-01
6.597194388777555e+00 -4.0233014048357257e-01 -3.1381287171007710e-01  4.4984370145130598e-02 -2.8239352549025304e-01  4.4984370145130598e-02 -2.8239352549025304e-01 -4.3297463114383078e-01 -4.2509041598766317e-01
6.695390781563124e+00 -4.0575853544389862e-01 -3.1087495182843705e-01  4.1794852851978904e-02 -2.7905285293853105e-01  4.1794852851979279e-02 -2.7905285293853099e-01 -4.3725020986221896e-01 -4.2357121964303440e-01
6.793587174348697e+00 -4.0907330847281048e-01 -3.0797348707822958e-01  3.8721503419916967e-02 -2.7575130141900611e-01  3.8721503419916849e-02 -2.7575130141900611e-01 -4.4142102969663516e-01 -4.2207910643183810e-01
6.891783567134269e+00 -4.1227913496747470e-01 -3.0510892196040817e-01  3.5759607396534575e-02 -2.7248933542661391e-01  3.5759607396534603e-02 -2.7248933542661413e-01 -4.4549163332709207e-01 -4.2061445075529663e-01
6.989979959919838e+00 -4.1538047682573992e-01 -3.0228158480183370e-01  3.2904663738324395e-02 -2.6926730260027087e-01  3.2904663738324395e-02 -2.6926730260027087e-01 -4.4946634937884183e-01 -4.1917751311964296e-01
7.088176352705410e+00 -4.1838159212987297e-01 -2.9949169988529428e-01  3.0152375138069634e-02 -2.6608544585644794e-01  3.0152375138069645e-02 -2.6608544585644806e-01 -4.5334930215611002e-01 -4.1776845226701353e-01
7.186372745490981e+00 -4.2128654450539971e-01 -2.9673939845010222e-01  2.7498638677082288e-02 -2.6294391439338194e-01  2.7498638677082066e-02 -2.6294391439338211e-01 -4.5714442105040637e-01 -4.1638733617545470e-01
7.284569138276551e+00 -4.2409921214392265e-01 -2.9402472866527718e-01  2.4939536813413182e-02 -2.5984277366794695e-01  2.4939536813413307e-02 -2.5984277366794706e-01 -4.6085544961225910e-01 -4.1503415203011906e-01
7.382765531062124e+00 -4.2682329648357964e-01 -2.9134766466841061e-01  2.2471328712364357e-02 -2.5678201443829490e-01  2.2471328712364482e-02 -2.5678201443829501e-01 -4.6448595428000644e-01 -4.1370881525879671e-01
7.480961923847695e+00 -4.2946233054474037e-01 -2.8870811475510039e-01  2.0090441921697611e-02 -2.5376156095716651e-01  2.0090441921697819e-02 -2.5376156095716629e-01 -4.6803933276323167e-01 -4.1241117771672658e-01
7.579158316633265e+00 -4.3201968692176618e-01 -2.8610592879631019e-01  1.7793464390717807e-02 -2.5078127839323472e-01  1.7793464390717807e-02 -2.5078127839323472e-01 -4.7151882208162832e-01 -4.1114103509809191e-01
7.677354709418837e+00 -4.3449858543423242e-01 -2.8354090495410272e-01  1.5577136829810590e-02 -2.4784097955094195e-01  1.5577136829810465e-02 -2.4784097955094175e-01 -4.7492750626269736e-01 -4.0989813364470079e-01
7.775551102204407e+00 -4.3690210044312328e-01 -2.8101279575987997e-01  1.3438345404932809e-02 -2.4494043095296691e-01  1.3438345404933239e-02 -2.4494043095296678e-01 -4.7826832370375061e-01 -4.0868217621602221e-01
7.873747494989980e+00 -4.3923316783912519e-01 -2.7852131361348181e-01  1.1374114759913418e-02 -2.4207935834368055e-01  1.1374114759913526e-02 -2.4207935834368055e-01 -4.8154407420534023e-01 -4.0749282777898582e-01
7.971943887775550e+00 -4.4149459171142347e-01 -2.7606613575622196e-01  9.3816013581550645e-03 -2.3925745166667664e-01  9.3816013581550697e-03 -2.3925745166667675e-01 -4.8475742568450630e-01 -4.0632972037065740e-01
8.070140280561121e+00 -4.4368905070637704e-01 -2.7364690876613396e-01  7.4580871343591509e-03 -2.3647436956464643e-01  7.4580871343592594e-03 -2.3647436956464654e-01 -4.8791092057719609e-01 -4.0519245758210559e-01
8.168336673346692e+00 -4.4581910408612735e-01 -2.7126325261930040e-01  5.6009734462047125e-03 -2.3372974344548220e-01  5.6009734462046145e-03 -2.3372974344548239e-01 -4.9100698193990722e-01 -4.0408061860737687e-01
8.266533066132263e+00 -4.4788719749770461e-01 -2.6891476435716061e-01  3.8077753154192179e-03 -2.3102318115449916e-01  3.8077753154192192e-03 -2.3102318115449924e-01 -4.9404791926110125e-01 -4.0299376189750552e-01
8.364729458917836e+00 -4.4989566846348200e-01 -2.6660102139604130e-01  2.0761159473780704e-03 -2.2835427028902516e-01  2.0761159473781736e-03 -2.2835427028902536e-01 -4.9703593399323137e-01 -4.0193142845584606e-01
8.462925851703405e+00 -4.5184675160399862e-01 -2.6432158451185361e-01  4.0372151820904193e-04 -2.2572258118830077e-01  4.0372151820884222e-04 -2.2572258118830119e-01 -4.9997312481639283e-01 -4.0089314480770344e-01
8.561122244488974e+00 -4.5374258360420411e-01 -2.6207600052988833e-01 -1.2115837816580931e-03 -2.2312766962862016e-01 -1.2115837816580931e-03 -2.2312766962862016e-01 -5.0286149264464497e-01 -3.9987842567422793e-01
8.659318637274549e+00 -4.5558520793412266e-01 -2.5986380474690390e-01 -2.7718824584981984e-03 -2.2056907925090807e-01 -2.7718824584980024e-03 -2.2056907925090807e-01 -5.0570294538598826e-01 -3.9888677637780584e-01
8.757515030060119e+00 -4.5737657933478509e-01 -2.5768452311021744e-01 -4.2791681917127029e-03 -2.1804634374543974e-01 -4.2791681917128000e-03 -2.1804634374543974e-01 -5.0849930246684527e-01 -3.9791769500368457e-01
8.855711422845689e+00 -4.5911856808009194e-01 -2.5553767417624629e-01 -5.7353500863276995e-03 -2.1555898881615140e-01 -5.7353500863277940e-03 -2.1555898881615129e-01 -5.1125229913169645e-01 -3.9697067434031641e-01
8.953907815631263e+00 -4.6081296402500271e-01 -2.5342277086889797e-01 -7.1422567119746212e-03 -2.1310653394493492e-01 -7.1422567119747158e-03 -2.1310653394493492e-01 -5.1396359052826279e-01 -3.9604520361884699e-01
9.052104208416834e+00 -4.6246148045016999e-01 -2.5133932205633874e-01 -8.5016399384730615e-03 -2.1068849397444361e-01 -8.5016399384731517e-03 -2.1068849397444353e-01 -5.1663475558834893e-01 -3.9514077007030901e-01
9.150300601202401e+00 -4.6406575771281594e-01 -2.4928683396297824e-01 -9.8151785778200287e-03 -2.0830438052624578e-01 -9.8151785778199264e-03 -2.0830438052624559e-01 -5.1926730071414084e-01 -3.9425686031739182e-01
9.248496993987976e+00 -4.6562736671331528e-01 -2.4726481143196855e-01 -1.1084481842051009e-02 -2.0595370326961920e-01 -1.1084481842051004e-02 -2.0595370326961912e-01 -5.2186266327941488e-01 -3.9339296161611109e-01
9.346693386773545e+00 -4.6714781218659718e-01 -2.4527275905212145e-01 -1.2311092626090725e-02 -2.0363597105488596e-01 -1.2311092626090736e-02 -2.0363597105488615e-01 -5.2442221495477082e-01 -3.9254856296131180e-01
9.444889779559116e+00 -4.6862853582712244e-01 -2.4331018216187217e-01 -1.3496490624353605e-02 -2.0135069292391408e-01 -1.3496490624353799e-02 -2.0135069292391433e-01 -5.2694726486564281e-01 -3.9172315606866326e-01
9.543086172344688e+00 -4.7007091925582967e-01 -2.4137658774177528e-01 -1.4642095289491832e-02 -1.9909737900926472e-01 -1.4642095289491858e-02 -1.9909737900926508e-01 -5.2943906259147722e-01 -3.9091623624465527e-01
9.641282565130259e+00 -4.7147628683709275e-01 -2.3947148520596090e-01 -1.5749268641331190e-02 -1.9687554133241214e-01 -1.5749268641331117e-02 -1.9687554133241233e-01 -5.3189880101412035e-01 -3.9012730315505423e-01
9.739478957915829e+00 -4.7284590835336010e-01 -2.3759438710203673e-01 -1.6819317933674201e-02 -1.9468469451051287e-01 -1.6819317933674013e-02 -1.9468469451051273e-01 -5.3432761902308457e-01 -3.8935586150133022e-01
9.837675350701403e+00 -4.7418100154480564e-01 -2.3574480972805481e-01 -1.7853498186302368e-02 -1.9252435638034265e-01 -1.7853498186302542e-02 -1.9252435638034263e-01 -5.3672660408502637e-01 -3.8860142161369771e-01
9.935871743486974e+00 -4.7548273452098255e-01 -2.3392227367437463e-01 -1.8853014589161627e-02 -1.9039404854722616e-01 -1.8853014589161627e-02 -1.9039404854722616e-01 -5.3909679468441718e-01 -3.8786349996863184e-01
1.003406813627254e+01 -4.7675222805111533e-01 -2.3212630429754788e-01 -1.9819024785383100e-02 -1.8829329686607876e-01 -1.9819024785382951e-02 -1.8829329686607896e-01 -5.4143918264205793e-01 -3.8714161963800481e-01
