!Agilent Technologies,N5227A,US51270349,A.09.80.20
!Agilent N5227A: A.09.80.20
!Date: Saturday, September 07, 2024 05:07:42
!Correction: S11(Full 2 Port(1,2)) 
!S21(Full 2 Port(1,2)) 
!S12(Full 2 Port(1,2)) 
!S22(Full 2 Port(1,2)) 
!S2P File: Measurements: S11, S21, S12, S22:
# Hz S  RI   R 50
100000000 0.96506447 -0.21777934 -12.778478 1.7753612 0.0030567767 0.015599854 0.22914404 -0.15462618
110000000 0.95768458 -0.2146225 -12.907232 2.1816843 0.0029326144 0.014528418 0.21951614 -0.11673985
120000000 0.9722445 -0.20140329 -11.212316 1.9644415 0.0019951751 0.015224184 0.33414629 -0.093336202
130000000 0.9616797 -0.22515625 -10.935752 2.1395671 0.0019808628 0.015628694 0.34655663 -0.090052806
140000000 0.9721989 -0.22795416 -10.978341 2.0074198 0.00084939052 0.015618968 0.3459028 -0.10590435
150000000 0.94788164 -0.2293665 -10.292633 2.3189576 0.0029623143 0.016931634 0.36677504 -0.087665856
160000000 0.94417244 -0.23785475 -10.045005 2.3695817 0.0032782899 0.017904393 0.3780143 -0.0865115
170000000 0.93873703 -0.24766135 -9.8355103 2.4035239 0.0037050354 0.018601939 0.38642722 -0.086713232
180000000 0.93728709 -0.2557047 -9.5874777 2.4079149 0.0035274052 0.019173568 0.39904574 -0.08934617
190000000 0.92717814 -0.26566523 -9.4569883 2.451642 0.0037946284 0.020628221 0.40078545 -0.096995637
200000000 0.93899143 -0.27037328 -9.9831419 2.1904695 0.0044815359 0.018882563 0.39528331 -0.12246732
210000000 0.92123127 -0.28406021 -9.4373627 2.4545975 0.004639464 0.022303931 0.40236214 -0.12182939
220000000 0.92093587 -0.29425234 -9.2185392 2.579402 0.0049805511 0.022822795 0.4099541 -0.10962969
230000000 0.91502756 -0.30577281 -9.1418676 2.6553013 0.0048687188 0.023651246 0.40905073 -0.11607622
240000000 0.91043097 -0.31630647 -9.0638237 2.7278261 0.0049514575 0.024289133 0.4099614 -0.11948117
250000000 0.9061473 -0.32816058 -9.0266171 2.7663374 0.0056661642 0.025211014 0.4112646 -0.12669004
260000000 0.89418304 -0.33582991 -8.9419489 2.9701586 0.0068486929 0.026215093 0.39820737 -0.1238406
270000000 0.89184082 -0.34448597 -8.8847599 2.9004261 0.0061315084 0.026396917 0.4094646 -0.13521889
280000000 0.88326508 -0.35357597 -8.7088823 3.0330305 0.006659105 0.027079221 0.40675068 -0.14257012
290000000 0.8824116 -0.36595941 -8.7554388 3.0644574 0.006823069 0.028782241 0.40653265 -0.14192109
300000000 0.88263839 -0.37817612 -8.7427225 3.0724902 0.0068963715 0.029699683 0.41078734 -0.1506497
310000000 0.87315273 -0.38541341 -8.6203489 3.1335857 0.0069769612 0.030123161 0.41127759 -0.15288161
320000000 0.8664434 -0.39778247 -8.5964231 3.2386422 0.0076315659 0.031152027 0.40219295 -0.15990211
330000000 0.86005133 -0.40245917 -8.4146442 3.2770395 0.0081090964 0.031314641 0.40686196 -0.16165304
340000000 0.85484511 -0.41630548 -8.4194155 3.3260231 0.0085268775 0.032433584 0.4068265 -0.16553116
350000000 0.84801036 -0.42305034 -8.4071341 3.4409821 0.0085933795 0.03392135 0.40034339 -0.16818076
360000000 0.8390466 -0.43310443 -8.2991552 3.5219955 0.0094599528 0.033636697 0.39774194 -0.16891751
370000000 0.8353169 -0.44489998 -8.2405148 3.5399261 0.010216781 0.034564622 0.39875773 -0.17745391
380000000 0.82960236 -0.45201036 -8.1626568 3.5849259 0.010535538 0.035669308 0.39669371 -0.18285933
390000000 0.8218025 -0.4620795 -8.1191092 3.6647699 0.01070819 0.036512055 0.3913129 -0.18292138
400000000 0.81436223 -0.47341728 -8.1266909 3.7565393 0.010909644 0.037237961 0.38689524 -0.19136238
410000000 0.80546916 -0.48148331 -8.0523376 3.8116624 0.011823988 0.037926182 0.38813415 -0.19317642
420000000 0.79985589 -0.48799607 -7.9536905 3.8449121 0.012813063 0.038568415 0.38986245 -0.19541851
430000000 0.79509586 -0.4940947 -7.8662844 3.8815546 0.012876396 0.039662529 0.38489112 -0.20104527
440000000 0.78619999 -0.50223607 -7.7955918 3.9594691 0.013224022 0.040143002 0.37824181 -0.20069756
450000000 0.776483 -0.51461685 -7.8086796 4.0558119 0.013717762 0.041288037 0.37588423 -0.2119495
460000000 0.76765519 -0.52313268 -7.7464619 4.1203442 0.01404607 0.041523065 0.37125805 -0.21299213
470000000 0.76352113 -0.53092355 -7.6838951 4.131175 0.014690802 0.04257651 0.37469172 -0.21682313
480000000 0.7533102 -0.53984398 -7.6090579 4.2033906 0.015540938 0.043065362 0.36947933 -0.22017154
490000000 0.74421066 -0.54607856 -7.533783 4.2649393 0.015892021 0.044185545 0.3630138 -0.22314529
500000000 0.73636574 -0.55140311 -7.48247 4.3204341 0.016277181 0.044471916 0.36114505 -0.2284147
510000000 0.72873688 -0.55714607 -7.4307055 4.3730197 0.016406914 0.045444049 0.35977578 -0.23030795
520000000 0.72220582 -0.56289095 -7.3260312 4.4163861 0.017022975 0.045345958 0.35736328 -0.22736439
530000000 0.71520489 -0.57309097 -7.3061852 4.4780288 0.018410305 0.047605533 0.3473168 -0.23643799
540000000 0.70749629 -0.58213645 -7.239255 4.4767857 0.018036209 0.047343258 0.34984571 -0.24210036
550000000 0.69229817 -0.58776754 -7.1583133 4.5755081 0.018893698 0.047393415 0.34590316 -0.24134661
560000000 0.68373418 -0.59735209 -7.1389956 4.6490388 0.020163275 0.048304051 0.34136918 -0.24575599
570000000 0.67708397 -0.59955364 -7.0713263 4.68964 0.019819368 0.048372272 0.34044394 -0.24617383
580000000 0.66885805 -0.60437286 -6.9751077 4.7147517 0.020914348 0.049452372 0.33770847 -0.25030047
590000000 0.66420597 -0.61006325 -6.8984957 4.7282243 0.021744624 0.050222747 0.33813125 -0.25416222
600000000 0.65694976 -0.61737782 -6.8682518 4.7917399 0.021500189 0.050844733 0.33293098 -0.25481859
610000000 0.64794916 -0.6301468 -6.8353724 4.8613772 0.022920446 0.052165851 0.32820058 -0.26151055
620000000 0.63356233 -0.63576895 -6.761766 4.9281878 0.02287784 0.051861025 0.32297501 -0.26073751
630000000 0.62643349 -0.63994133 -6.6884384 4.9606881 0.023484185 0.05289812 0.31827193 -0.26354846
640000000 0.61685687 -0.6425783 -6.5955887 4.9716172 0.024273906 0.053131826 0.31540638 -0.26677051
650000000 0.60777503 -0.65043545 -6.574162 5.0496926 0.025275681 0.054251213 0.3136718 -0.27349314
660000000 0.59930843 -0.65285534 -6.5083332 5.0898614 0.025520721 0.055098187 0.30874279 -0.27291197
670000000 0.58982056 -0.66138083 -6.4351101 5.1395583 0.025823833 0.054529183 0.30507785 -0.27304327
680000000 0.58351374 -0.66610891 -6.376564 5.135767 0.02645955 0.055455159 0.30640617 -0.27883926
690000000 0.57631224 -0.66831201 -6.2801991 5.1535616 0.027225582 0.055736873 0.30157542 -0.27768478
700000000 0.56415421 -0.67432177 -6.2400465 5.2146974 0.028157607 0.056154627 0.29672956 -0.28059587
710000000 0.55424434 -0.68169671 -6.1980314 5.2790246 0.028150156 0.05671715 0.29145661 -0.28325379
720000000 0.54213774 -0.68366277 -6.1219454 5.3204565 0.028572548 0.057544071 0.28848499 -0.28405806
730000000 0.53555185 -0.68399817 -6.0250583 5.3386774 0.029423952 0.057815865 0.28193262 -0.28435999
740000000 0.52935535 -0.68742198 -5.9637809 5.3397088 0.030221211 0.057874918 0.28256652 -0.28769389
750000000 0.5205195 -0.69360405 -5.9123321 5.3757658 0.031179633 0.058882456 0.27991989 -0.28809047
760000000 0.51452273 -0.69730699 -5.8674679 5.3986783 0.031645723 0.060171228 0.27876505 -0.29242939
770000000 0.50126231 -0.70471311 -5.8125348 5.4606962 0.031918336 0.059806824 0.26964971 -0.29371575
780000000 0.49209675 -0.70451635 -5.7105227 5.4707618 0.032679997 0.060141116 0.26838851 -0.28973708
790000000 0.48226359 -0.70813251 -5.6531038 5.4875402 0.033058431 0.060172703 0.26556808 -0.2961255
800000000 0.47366354 -0.710024 -5.5946927 5.5106192 0.033724401 0.060445674 0.26156199 -0.29666871
810000000 0.46713021 -0.71351326 -5.5399837 5.5460596 0.034752835 0.061550204 0.25766492 -0.2985054
820000000 0.453453 -0.71911991 -5.4908204 5.6015043 0.035069261 0.061591614 0.25126252 -0.30326182
830000000 0.44811988 -0.72236943 -5.4102488 5.620204 0.035324853 0.06251777 0.24876206 -0.30164352
840000000 0.4400782 -0.72364318 -5.3508229 5.6145968 0.036230966 0.062551662 0.24880907 -0.30381516
850000000 0.43098307 -0.72687918 -5.2770171 5.6322765 0.036604702 0.063115135 0.2445378 -0.3036747
860000000 0.42100883 -0.72960812 -5.2293367 5.6627431 0.03740336 0.064052075 0.24404554 -0.30623925
870000000 0.41201359 -0.73107648 -5.1599984 5.6844039 0.038681485 0.064222559 0.23985372 -0.30704421
880000000 0.40262726 -0.73252434 -5.0924082 5.7077985 0.038305659 0.064273097 0.23616099 -0.30881974
890000000 0.39549488 -0.73254615 -5.0106878 5.709137 0.039343957 0.064754382 0.22959602 -0.30735144
900000000 0.38854742 -0.73512638 -4.9566445 5.7201457 0.039229058 0.064755924 0.22623497 -0.30778426
910000000 0.37981865 -0.73976022 -4.9076037 5.7550344 0.040714193 0.065378122 0.22520602 -0.31238127
920000000 0.36861077 -0.74214977 -4.8508921 5.7780876 0.040666472 0.066228084 0.22352444 -0.3117114
930000000 0.35693485 -0.74425411 -4.778729 5.8005538 0.042276952 0.065936364 0.21724859 -0.31043923
940000000 0.3516351 -0.74418879 -4.7153716 5.7966967 0.042309359 0.066344254 0.21468352 -0.31387892
950000000 0.34449872 -0.74374861 -4.6558933 5.7968946 0.042513281 0.066482797 0.21167286 -0.31280497
960000000 0.33350435 -0.74505043 -4.5951962 5.8332543 0.043499477 0.06667123 0.20776863 -0.31388822
970000000 0.32559332 -0.74942762 -4.547565 5.8497863 0.043795638 0.067394339 0.20762351 -0.31795335
980000000 0.31944534 -0.7489152 -4.4907475 5.853209 0.044394806 0.067403682 0.20363268 -0.31675255
990000000 0.31094012 -0.7491051 -4.4101043 5.858573 0.045420893 0.067826398 0.19696572 -0.31484553
1000000000 0.30261204 -0.75019646 -4.3684797 5.8564224 0.04575225 0.067974217 0.19743772 -0.31801283
1010000000 0.29234672 -0.75163138 -4.3097177 5.8911533 0.046606034 0.068482876 0.19285612 -0.31822303
1020000000 0.28300861 -0.74947923 -4.2373815 5.8966246 0.046719428 0.068428002 0.19046396 -0.31590751
1030000000 0.27466774 -0.75111377 -4.1845675 5.9148521 0.047633972 0.068774574 0.18756686 -0.31868759
1040000000 0.2671876 -0.75048858 -4.1312623 5.905334 0.048583761 0.06924326 0.18295893 -0.31850559
1050000000 0.26123363 -0.75242656 -4.0703416 5.9115858 0.048741624 0.069564104 0.17922337 -0.31842253
1060000000 0.25111923 -0.75498724 -4.0177698 5.938067 0.049101986 0.069513611 0.17610456 -0.32277668
1070000000 0.2433046 -0.75278455 -3.9620194 5.9356513 0.049702693 0.069749445 0.17471299 -0.31931868
1080000000 0.23503774 -0.75472403 -3.9072742 5.9483418 0.050903551 0.07047721 0.16951022 -0.32066196
1090000000 0.22774579 -0.75414366 -3.8456156 5.945292 0.051143426 0.070660874 0.16672315 -0.31995371
1100000000 0.22147061 -0.7516557 -3.7808785 5.9338942 0.052017573 0.070436202 0.16656308 -0.31971544
1110000000 0.21404132 -0.75069368 -3.7340281 5.9482517 0.052025966 0.070842199 0.16189136 -0.32148656
1120000000 0.20608605 -0.75300455 -3.6832857 5.9578571 0.05252691 0.071597204 0.16106951 -0.31981224
1130000000 0.19765668 -0.75381792 -3.6348975 5.9720454 0.054033518 0.071432874 0.15701076 -0.32147849
1140000000 0.19077115 -0.75425398 -3.5811143 5.9656997 0.054315172 0.071763158 0.15590523 -0.32137433
1150000000 0.18405971 -0.75292552 -3.5134649 5.9502664 0.054335851 0.071907833 0.15171371 -0.32133049
1160000000 0.17449301 -0.7532354 -3.4665773 5.963748 0.055120502 0.071765222 0.1488357 -0.3224631
1170000000 0.16549037 -0.75176656 -3.409574 5.9690599 0.055845521 0.072557628 0.14757125 -0.32220444
1180000000 0.15917048 -0.7508828 -3.3622582 5.9775939 0.056629751 0.072377168 0.14310038 -0.32096842
1190000000 0.15200569 -0.74868321 -3.2960949 5.9643908 0.05660541 0.072828561 0.13995892 -0.31946221
1200000000 0.14820112 -0.74985212 -3.2555261 5.9513202 0.05749435 0.072921254 0.1377368 -0.31969252
1210000000 0.13887107 -0.7488842 -3.1985834 5.9584494 0.057796836 0.072568193 0.13446437 -0.31908053
1220000000 0.13193384 -0.74925119 -3.1508126 5.9646063 0.058228869 0.073073849 0.13343839 -0.31830308
1230000000 0.12279394 -0.74680358 -3.0927753 5.9676385 0.059309322 0.073643342 0.12852746 -0.32006714
1240000000 0.11533844 -0.74412972 -3.0403883 5.9612489 0.059743166 0.073225327 0.12574346 -0.318349
1250000000 0.10926542 -0.74252379 -2.985466 5.9451537 0.060081646 0.073672175 0.12178731 -0.31873912
1260000000 0.10164265 -0.74085808 -2.9357071 5.946394 0.060852922 0.073257551 0.11928286 -0.31914052
1270000000 0.095101722 -0.74068308 -2.8900774 5.9541216 0.061343469 0.073966965 0.11734709 -0.31749439
1280000000 0.088479795 -0.73906332 -2.842303 5.9548435 0.061802924 0.073915266 0.11507844 -0.31899634
1290000000 0.080419496 -0.73903334 -2.7881546 5.9505749 0.062217262 0.074330412 0.11186656 -0.31654486
1300000000 0.073693365 -0.73734307 -2.7420595 5.9389329 0.06247545 0.074102134 0.11007018 -0.3191337
1310000000 0.068410978 -0.73593557 -2.6979733 5.9251575 0.063575946 0.074273638 0.1070936 -0.31652802
1320000000 0.058236882 -0.73329252 -2.6457548 5.9316883 0.064321637 0.074286565 0.10284561 -0.31857827
1330000000 0.051956888 -0.73062044 -2.601871 5.9274955 0.063716903 0.074939869 0.10394918 -0.31496173
1340000000 0.046800718 -0.72817969 -2.555501 5.9211154 0.064909369 0.074804612 0.098460451 -0.31579703
1350000000 0.040412001 -0.72770613 -2.5081358 5.9170308 0.065191828 0.074982442 0.096640155 -0.31539118
1360000000 0.035835613 -0.72708976 -2.4603887 5.9001994 0.065970242 0.075324535 0.094628468 -0.3152101
1370000000 0.029075513 -0.72576773 -2.4178691 5.9044991 0.066557579 0.075105786 0.090445794 -0.31490618
1380000000 0.020812782 -0.72454494 -2.3666399 5.9011807 0.06714344 0.075736448 0.089675941 -0.31419235
1390000000 0.013324465 -0.7217074 -2.3227274 5.8992486 0.067852713 0.075280041 0.087937288 -0.31156611
1400000000 0.0086065196 -0.71889448 -2.2806854 5.8769708 0.067806117 0.075670943 0.0856902 -0.31201628
1410000000 0.0045291814 -0.71625787 -2.233377 5.8601341 0.068691872 0.075329557 0.084785879 -0.31184196
1420000000 -0.0017854939 -0.71498442 -2.1865408 5.8532825 0.069067009 0.075888969 0.080032542 -0.30928269
1430000000 -0.008508957 -0.713875 -2.1471639 5.8579717 0.069504522 0.075393304 0.07985609 -0.30990532
1440000000 -0.015192293 -0.71220034 -2.1036532 5.8546834 0.070586704 0.076187268 0.074473664 -0.30929121
1450000000 -0.021102833 -0.70931417 -2.0562141 5.8401604 0.070690297 0.075898916 0.072556511 -0.30853915
1460000000 -0.02606583 -0.70800471 -2.0150318 5.8229337 0.070875019 0.076300241 0.069052987 -0.30679226
1470000000 -0.033339225 -0.70488268 -1.9750385 5.8183217 0.071528301 0.076119296 0.069401398 -0.30586147
1480000000 -0.040301923 -0.70131403 -1.9244062 5.8121834 0.072005145 0.076524228 0.067554161 -0.30396014
1490000000 -0.046052337 -0.69849062 -1.8856171 5.8059239 0.07324025 0.076655321 0.064184651 -0.30586722
1500000000 -0.050191715 -0.69659036 -1.8437176 5.7952423 0.073493019 0.076279722 0.061451167 -0.30319393
1510000000 -0.055029564 -0.69519693 -1.8084363 5.777431 0.074062496 0.076664478 0.058958054 -0.3036705
1520000000 -0.061842009 -0.69445026 -1.7692717 5.7692332 0.074015081 0.076995887 0.0581127 -0.30301166
1530000000 -0.068623357 -0.69197994 -1.727173 5.7695041 0.074272446 0.07670556 0.055553526 -0.30245435
1540000000 -0.074872784 -0.68706274 -1.6796838 5.7544622 0.075672694 0.076758809 0.054413237 -0.30255154
1550000000 -0.079687789 -0.68412369 -1.6478283 5.7456164 0.075771637 0.077279001 0.050947197 -0.30225354
1560000000 -0.083277561 -0.68121403 -1.6043108 5.7210178 0.076576769 0.077021688 0.051063951 -0.30186862
1570000000 -0.088943414 -0.67861402 -1.5672395 5.7166624 0.076942421 0.077235214 0.04826428 -0.29918286
1580000000 -0.094838962 -0.67532587 -1.5231187 5.7058425 0.077016741 0.077448174 0.045971069 -0.2971659
1590000000 -0.099666029 -0.67312825 -1.4916102 5.7002349 0.078015029 0.077280469 0.043771476 -0.29703909
1600000000 -0.10583252 -0.67090851 -1.4462767 5.687377 0.078291908 0.077404074 0.040183242 -0.29649571
1610000000 -0.11132834 -0.66913456 -1.411437 5.6705909 0.079312406 0.077427775 0.038647328 -0.29496181
1620000000 -0.11537093 -0.66474319 -1.3735307 5.6505547 0.079225175 0.076913245 0.034816947 -0.29394233
1630000000 -0.1203877 -0.66219008 -1.3424177 5.6433663 0.079484895 0.077119298 0.035543911 -0.29425991
1640000000 -0.12523003 -0.65854609 -1.3011438 5.6352954 0.080479011 0.077437691 0.033211637 -0.29305518
1650000000 -0.12977436 -0.65519553 -1.2630578 5.6218863 0.080337636 0.077015221 0.031340647 -0.29189545
1660000000 -0.13377862 -0.65459847 -1.230562 5.6038671 0.08103916 0.077366859 0.02920875 -0.29025719
1670000000 -0.13891235 -0.65316027 -1.1998811 5.5921745 0.081586018 0.077608794 0.028455034 -0.2893658
1680000000 -0.14505067 -0.64880764 -1.1597629 5.5836029 0.081995159 0.077783376 0.028042221 -0.28816324
1690000000 -0.15141635 -0.64503968 -1.1248027 5.5777068 0.082652956 0.077586368 0.02341653 -0.28929254
1700000000 -0.1559719 -0.64068788 -1.0857148 5.5582962 0.082820676 0.077697098 0.023170609 -0.28790301
1710000000 -0.15901288 -0.63727689 -1.0574381 5.5383072 0.083780013 0.077339269 0.019813936 -0.2866869
1720000000 -0.16250366 -0.63670856 -1.0227768 5.5204229 0.083889954 0.077514842 0.018070024 -0.28493991
1730000000 -0.16680256 -0.63308978 -0.98774987 5.5126214 0.084444478 0.077261992 0.01731861 -0.28556892
1740000000 -0.17293605 -0.63009012 -0.9524557 5.5004201 0.084673785 0.077384897 0.01691933 -0.28303155
1750000000 -0.17815228 -0.62764937 -0.91998535 5.4925065 0.085062966 0.077787615 0.013430976 -0.28402653
1760000000 -0.1821112 -0.62409163 -0.88709646 5.4683447 0.085740753 0.077804357 0.012661717 -0.280404
1770000000 -0.1857502 -0.62091517 -0.85738522 5.4505539 0.085812673 0.077902883 0.0096482215 -0.27830222
1780000000 -0.19062351 -0.61676741 -0.82246518 5.4397864 0.086594142 0.077970579 0.0098043391 -0.28002542
1790000000 -0.19427429 -0.6134038 -0.78863293 5.4289775 0.086655192 0.078018717 0.0088014025 -0.27801871
1800000000 -0.19786152 -0.61059022 -0.75736803 5.4133382 0.08750876 0.077943645 0.0059938892 -0.27680719
1810000000 -0.20163615 -0.60828406 -0.72928476 5.3947086 0.087890051 0.078395709 0.0034706185 -0.27629662
1820000000 -0.20591898 -0.60623592 -0.69623691 5.3815923 0.088356763 0.077915907 0.0024425404 -0.27439556
1830000000 -0.21074279 -0.60286027 -0.66598433 5.3695025 0.088820353 0.078303471 0.0029251943 -0.27417612
1840000000 -0.21554656 -0.59899729 -0.63697594 5.3561797 0.089683622 0.07815484 0.00013121578 -0.27400067
1850000000 -0.22090854 -0.59338981 -0.59661633 5.3445764 0.089130759 0.078301713 -0.0019344891 -0.27206621
1860000000 -0.22303122 -0.59051085 -0.56902546 5.3210797 0.090180412 0.078145199 -0.0057857335 -0.26945049
1870000000 -0.22564043 -0.58790606 -0.5438199 5.3025212 0.090317734 0.078013994 -0.0055125845 -0.26981309
1880000000 -0.23001567 -0.5851624 -0.51330793 5.2914109 0.090672322 0.077987559 -0.007840842 -0.26849419
1890000000 -0.23365989 -0.58208221 -0.48882291 5.2789803 0.091586471 0.078186095 -0.010346336 -0.26862422
1900000000 -0.23729643 -0.57890522 -0.45691833 5.2650404 0.091780342 0.077896133 -0.01049014 -0.26625085
1910000000 -0.24286893 -0.57602632 -0.42632553 5.2524776 0.092450477 0.077908076 -0.011875457 -0.26435092
1920000000 -0.24712601 -0.57247257 -0.39885813 5.2325587 0.092601888 0.078054376 -0.013634251 -0.26385024
1930000000 -0.25015339 -0.56774575 -0.36825186 5.2154126 0.093167275 0.078431658 -0.016949866 -0.26236722
1940000000 -0.25367123 -0.56553108 -0.34376052 5.2003365 0.093197338 0.077806801 -0.016336091 -0.26032028
1950000000 -0.2564626 -0.56187773 -0.31303081 5.1871734 0.093756154 0.078057662 -0.01663987 -0.26043639
1960000000 -0.26014888 -0.5593465 -0.287552 5.1751752 0.09465006 0.077977121 -0.018211184 -0.25939482
1970000000 -0.26383573 -0.55605119 -0.25984374 5.1556277 0.094819523 0.078343652 -0.021216046 -0.25714985
1980000000 -0.26729074 -0.55305988 -0.23102826 5.1386786 0.095589116 0.077832915 -0.021577884 -0.25644386
1990000000 -0.27205688 -0.5484795 -0.20226045 5.1273408 0.095453598 0.077921048 -0.023083979 -0.25339216
2000000000 -0.2757867 -0.5447275 -0.17715785 5.1122346 0.095757402 0.077860951 -0.024694281 -0.2534247
