!File from Matlab
!Generated by Escribir_Y_Guardar_S2P class
# HZ S RI R 50
1000000.0 -0.1976444548 0.2482269889 -0.6366888262 0.2431570959 -0.6366888262 0.2431570959 -0.1968626361 0.2664015814
1100000.0 -0.1823122044 0.2673991591 -0.6213979449 0.2618231710 -0.6213979449 0.2618231710 -0.1813673630 0.2873818022
1200000.0 -0.1662339024 0.2852441457 -0.6053650581 0.2791623736 -0.6053650581 0.2791623736 -0.1651109274 0.3070322726
1300000.0 -0.1495491479 0.3017478242 -0.5887297831 0.2951606279 -0.5887297831 0.2951606279 -0.1482330195 0.3253386803
1400000.0 -0.1323918935 0.3169121366 -0.5716260881 0.3098199278 -0.5716260881 0.3098199278 -0.1308676833 0.3423027867
1500000.0 -0.1148886750 0.3307532558 -0.5541805229 0.3231565006 -0.5541805229 0.3231565006 -0.1131415466 0.3579405905
1600000.0 -0.0971572776 0.3432996265 -0.5365108837 0.3351988475 -0.5365108837 0.3351988475 -0.0951724855 0.3722803681
1700000.0 -0.0793058136 0.3545899735 -0.5187252913 0.3459857516 -0.5187252913 0.3459857516 -0.0770687025 0.3853606810
1800000.0 -0.0614321769 0.3646713511 -0.5009216449 0.3555643272 -0.5009216449 0.3555643272 -0.0589281804 0.3972284246
1900000.0 -0.0436238255 0.3735972924 -0.4831874050 0.3639881680 -0.4831874050 0.3639881680 -0.0408384648 0.4079369765
2000000.0 -0.0259578412 0.3814260999 -0.4655996534 0.3713156381 -0.4655996534 0.3713156381 -0.0228767238 0.4175444872
2100000.0 -0.0085012138 0.3882193072 -0.4482253767 0.3776083325 -0.4482253767 0.3776083325 -0.0051100325 0.4261123402
2200000.0 0.0086887014 0.3940403239 -0.4311219242 0.3829297228 -0.4311219242 0.3829297228 0.0124041702 0.4337037972
2300000.0 0.0255636008 0.3989532713 -0.4143375913 0.3873439918 -0.4143375913 0.3873439918 0.0296174972 0.4403828334
2400000.0 0.0420835633 0.4030220030 -0.3979122883 0.3909150541 -0.3979122883 0.3909150541 0.0464899451 0.4462131571
2500000.0 0.0582163325 0.4063093017 -0.3818782581 0.3937057530 -0.3818782581 0.3937057530 0.0629891754 0.4512574069
2600000.0 0.0739365788 0.4088762379 -0.3662608154 0.3957772188 -0.3662608154 0.3957772188 0.0790897765 0.4555765099
2700000.0 0.0892251634 0.4107816746 -0.3510790815 0.3971883734 -0.3510790815 0.3971883734 0.0947725274 0.4592291865
2800000.0 0.1040684247 0.4120819003 -0.3363466990 0.3979955631 -0.3363466990 0.3979955631 0.1100236840 0.4622715826
2900000.0 0.1184574966 0.4128303726 -0.3220725132 0.3982523024 -0.3220725132 0.3982523024 0.1248342971 0.4647570140
3000000.0 0.1323876718 0.4130775557 -0.3082612092 0.3980091116 -0.3082612092 0.3980091116 0.1391995754 0.4667358035
3100000.0 0.1458578115 0.4128708360 -0.2949139019 0.3973134317 -0.2949139019 0.3973134317 0.1531182952 0.4682551966
3200000.0 0.1588698077 0.4122545013 -0.2820286744 0.3962096043 -0.2820286744 0.3962096043 0.1665922621 0.4693593407
3300000.0 0.1714280967 0.4112697708 -0.2696010642 0.3947389010 -0.2696010642 0.3947389010 0.1796258250 0.4700893148
3400000.0 0.1835392242 0.4099548643 -0.2576244983 0.3929395931 -0.2576244983 0.3929395931 0.1922254403 0.4704831994
3500000.0 0.1952114589 0.4083451018 -0.2460906798 0.3908470510 -0.2460906798 0.3908470510 0.2043992863 0.4705761760
3600000.0 0.2064544529 0.4064730245 -0.2349899272 0.3884938652 -0.2349899272 0.3884938652 0.2161569226 0.4704006478
3700000.0 0.2172789452 0.4043685315 -0.2243114717 0.3859099828 -0.2243114717 0.3859099828 0.2275089940 0.4699863769
3800000.0 0.2276965038 0.4020590247 -0.2140437144 0.3831228529 -0.2140437144 0.3831228529 0.2384669727 0.4693606293
3900000.0 0.2377193046 0.3995695601 -0.2041744480 0.3801575776 -0.2041744480 0.3801575776 0.2490429365 0.4685483258
4000000.0 0.2473599416 0.3969229993 -0.1946910461 0.3770370636 -0.1946910461 0.3770370636 0.2592493800 0.4675721945
4100000.0 0.2566312667 0.3941401609 -0.1855806240 0.3737821734 -0.1855806240 0.3737821734 0.2690990532 0.4664529212
4200000.0 0.2655462543 0.3912399668 -0.1768301741 0.3704118721 -0.1768301741 0.3704118721 0.2786048271 0.4652092968
4300000.0 0.2741178880 0.3882395851 -0.1684266786 0.3669433700 -0.1684266786 0.3669433700 0.2877795797 0.4638583596
4400000.0 0.2823590680 0.3851545659 -0.1603572030 0.3633922582 -0.1603572030 0.3633922582 0.2966361039 0.4624155313
4500000.0 0.2902825341 0.3819989702 -0.1526089727 0.3597726381 -0.1526089727 0.3597726381 0.3051870303 0.4608947467
4600000.0 0.2979008043 0.3787854924 -0.1451694340 0.3560972434 -0.1451694340 0.3560972434 0.3134447657 0.4593085749
4700000.0 0.3052261261 0.3755255739 -0.1380263038 0.3523775541 -0.1380263038 0.3523775541 0.3214214446 0.4576683344
4800000.0 0.3122704377 0.3722295107 -0.1311676076 0.3486239036 -0.1311676076 0.3486239036 0.3291288908 0.4559841996
4900000.0 0.3190453398 0.3689065518 -0.1245817081 0.3448455778 -0.1245817081 0.3448455778 0.3365785881 0.4542653003
5000000.0 0.3255620737 0.3655649920 -0.1182573268 0.3410509072 -0.1182573268 0.3410509072 0.3437816600 0.4525198136
5100000.0 0.3318315075 0.3622122566 -0.1121835586 0.3372473523 -0.1121835586 0.3372473523 0.3507488545 0.4507550493
5200000.0 0.3378641263 0.3588549798 -0.1063498806 0.3334415814 -0.1063498806 0.3334415814 0.3574905356 0.4489775283
5300000.0 0.3436700283 0.3554990769 -0.1007461565 0.3296395434 -0.1007461565 0.3296395434 0.3640166782 0.4471930545
5400000.0 0.3492589236 0.3521498106 -0.0953626379 0.3258465333 -0.0953626379 0.3258465333 0.3703368681 0.4454067813
5500000.0 0.3546401371 0.3488118514 -0.0901899615 0.3220672536 -0.0901899615 0.3220672536 0.3764603042 0.4436232723
5600000.0 0.3598226128 0.3454893332 -0.0852191443 0.3183058690 -0.0852191443 0.3183058690 0.3823958032 0.4418465564
5700000.0 0.3648149210 0.3421859039 -0.0804415769 0.3145660577 -0.0804415769 0.3145660577 0.3881518068 0.4400801792
5800000.0 0.3696252667 0.3389047717 -0.0758490148 0.3108510574 -0.0758490148 0.3108510574 0.3937363900 0.4383272484
5900000.0 0.3742614993 0.3356487473 -0.0714335692 0.3071637072 -0.0714335692 0.3071637072 0.3991572710 0.4365904770
6000000.0 0.3787311228 0.3324202821 -0.0671876962 0.3035064865 -0.0671876962 0.3035064865 0.4044218217 0.4348722206
6100000.0 0.3830413075 0.3292215034 -0.0631041854 0.2998815496 -0.0631041854 0.2998815496 0.4095370787 0.4331745132
6200000.0 0.3871989013 0.3260542460 -0.0591761488 0.2962907576 -0.0591761488 0.2962907576 0.4145097557 0.4314990988
6300000.0 0.3912104418 0.3229200808 -0.0553970082 0.2927357071 -0.0553970082 0.2927357071 0.4193462546 0.4298474600
6400000.0 0.3950821682 0.3198203418 -0.0517604840 0.2892177567 -0.0517604840 0.2892177567 0.4240526783 0.4282208444
6500000.0 0.3988200332 0.3167561488 -0.0482605826 0.2857380505 -0.0482605826 0.2857380505 0.4286348424 0.4266202883
6600000.0 0.4024297156 0.3137284301 -0.0448915845 0.2822975399 -0.0448915845 0.2822975399 0.4330982873 0.4250466388
6700000.0 0.4059166310 0.3107379413 -0.0416480328 0.2788970030 -0.0416480328 0.2788970030 0.4374482900 0.4235005725
6800000.0 0.4092859442 0.3077852831 -0.0385247217 0.2755370625 -0.0385247217 0.2755370625 0.4416898757 0.4219826140
6900000.0 0.4125425802 0.3048709179 -0.0355166851 0.2722182019 -0.0355166851 0.2722182019 0.4458278291 0.4204931518
7000000.0 0.4156912350 0.3019951839 -0.0326191855 0.2689407795 -0.0326191855 0.2689407795 0.4498667055 0.4190324524
7100000.0 0.4187363860 0.2991583084 -0.0298277039 0.2657050424 -0.0298277039 0.2657050424 0.4538108410 0.4176006743
7200000.0 0.4216823029 0.2963604198 -0.0271379295 0.2625111378 -0.0271379295 0.2625111378 0.4576643633 0.4161978794
7300000.0 0.4245330567 0.2936015584 -0.0245457493 0.2593591242 -0.0245457493 0.2593591242 0.4614312014 0.4148240437
7400000.0 0.4272925299 0.2908816860 -0.0220472396 0.2562489809 -0.0220472396 0.2562489809 0.4651150950 0.4134790676
7500000.0 0.4299644250 0.2882006951 -0.0196386560 0.2531806171 -0.0196386560 0.2531806171 0.4687196037 0.4121627842
7600000.0 0.4325522734 0.2855584166 -0.0173164253 0.2501538796 -0.0173164253 0.2501538796 0.4722481157 0.4108749677
7700000.0 0.4350594441 0.2829546270 -0.0150771372 0.2471685604 -0.0150771372 0.2471685604 0.4757038564 0.4096153402
7800000.0 0.4374891508 0.2803890551 -0.0129175360 0.2442244030 -0.0129175360 0.2442244030 0.4790898961 0.4083835787
7900000.0 0.4398444602 0.2778613879 -0.0108345133 0.2413211081 -0.0108345133 0.2413211081 0.4824091576 0.4071793206
8000000.0 0.4421282990 0.2753712757 -0.0088251010 0.2384583393 -0.0088251010 0.2384583393 0.4856644239 0.4060021689
8100000.0 0.4443434608 0.2729183372 -0.0068864637 0.2356357278 -0.0068864637 0.2356357278 0.4888583445 0.4048516977
8200000.0 0.4464926124 0.2705021633 -0.0050158931 0.2328528767 -0.0050158931 0.2328528767 0.4919934426 0.4037274555
8300000.0 0.4485783003 0.2681223218 -0.0032108011 0.2301093646 -0.0032108011 0.2301093646 0.4950721208 0.4026289701
8400000.0 0.4506029567 0.2657783601 -0.0014687141 0.2274047497 -0.0014687141 0.2274047497 0.4980966677 0.4015557512
8500000.0 0.4525689048 0.2634698090 0.0002127324 0.2247385726 0.0002127324 0.2247385726 0.5010692630 0.4005072942
8600000.0 0.4544783645 0.2611961851 0.0018357997 0.2221103590 0.0018357997 0.2221103590 0.5039919831 0.3994830825
8700000.0 0.4563334570 0.2589569935 0.0034026502 0.2195196228 0.0034026502 0.2195196228 0.5068668064 0.3984825906
8800000.0 0.4581362102 0.2567517302 0.0049153529 0.2169658677 0.0049153529 0.2169658677 0.5096956178 0.3975052859
8900000.0 0.4598885629 0.2545798841 0.0063758874 0.2144485899 0.0063758874 0.2144485899 0.5124802137 0.3965506309
9000000.0 0.4615923692 0.2524409385 0.0077861486 0.2119672796 0.0077861486 0.2119672796 0.5152223062 0.3956180851
9100000.0 0.4632494025 0.2503343734 0.0091479510 0.2095214225 0.0091479510 0.2095214225 0.5179235269 0.3947071064
9200000.0 0.4648613599 0.2482596664 0.0104630317 0.2071105019 0.0104630317 0.2071105019 0.5205854315 0.3938171529
9300000.0 0.4664298652 0.2462162944 0.0117330552 0.2047339992 0.0117330552 0.2047339992 0.5232095033 0.3929476838
9400000.0 0.4679564728 0.2442037343 0.0129596162 0.2023913958 0.0129596162 0.2023913958 0.5257971563 0.3920981607
9500000.0 0.4694426713 0.2422214646 0.0141442430 0.2000821737 0.0141442430 0.2000821737 0.5283497393 0.3912680488
9600000.0 0.4708898859 0.2402689660 0.0152884010 0.1978058164 0.0152884010 0.1978058164 0.5308685385 0.3904568176
9700000.0 0.4722994822 0.2383457220 0.0163934953 0.1955618101 0.0163934953 0.1955618101 0.5333547810 0.3896639415
9800000.0 0.4736727687 0.2364512202 0.0174608738 0.1933496442 0.0174608738 0.1933496442 0.5358096372 0.3888889009
9900000.0 0.4750109991 0.2345849525 0.0184918295 0.1911688117 0.0184918295 0.1911688117 0.5382342240 0.3881311826
10000000.0 0.4763153757 0.2327464155 0.0194876038 0.1890188102 0.0194876038 0.1890188102 0.5406296070 0.3873902801
10100000.0 0.4775870512 0.2309351115 0.0204493881 0.1868991420 0.0204493881 0.1868991420 0.5429968033 0.3866656946
10200000.0 0.4788271312 0.2291505485 0.0213783266 0.1848093148 0.0213783266 0.1848093148 0.5453367834 0.3859569347
10300000.0 0.4800366763 0.2273922408 0.0222755182 0.1827488419 0.0222755182 0.1827488419 0.5476504740 0.3852635173
10400000.0 0.4812167044 0.2256597089 0.0231420189 0.1807172426 0.0231420189 0.1807172426 0.5499387595 0.3845849676
10500000.0 0.4823681924 0.2239524803 0.0239788434 0.1787140423 0.0239788434 0.1787140423 0.5522024845 0.3839208193
10600000.0 0.4834920783 0.2222700895 0.0247869672 0.1767387730 0.0247869672 0.1767387730 0.5544424553 0.3832706150
10700000.0 0.4845892627 0.2206120778 0.0255673283 0.1747909732 0.0255673283 0.1747909732 0.5566594421 0.3826339060
10800000.0 0.4856606109 0.2189779940 0.0263208290 0.1728701881 0.0263208290 0.1728701881 0.5588541802 0.3820102528
10900000.0 0.4867069540 0.2173673942 0.0270483370 0.1709759700 0.0270483370 0.1709759700 0.5610273722 0.3813992249
11000000.0 0.4877290909 0.2157798421 0.0277506878 0.1691078780 0.0277506878 0.1691078780 0.5631796892 0.3808004009
11100000.0 0.4887277895 0.2142149086 0.0284286854 0.1672654784 0.0284286854 0.1672654784 0.5653117721 0.3802133686
11200000.0 0.4897037880 0.2126721724 0.0290831037 0.1654483443 0.0290831037 0.1654483443 0.5674242336 0.3796377251
11300000.0 0.4906577964 0.2111512196 0.0297146884 0.1636560562 0.0297146884 0.1636560562 0.5695176589 0.3790730764
11400000.0 0.4915904976 0.2096516439 0.0303241577 0.1618882015 0.0303241577 0.1618882015 0.5715926073 0.3785190377
11500000.0 0.4925025489 0.2081730465 0.0309122036 0.1601443748 0.0309122036 0.1601443748 0.5736496134 0.3779752334
11600000.0 0.4933945824 0.2067150363 0.0314794930 0.1584241778 0.0314794930 0.1584241778 0.5756891880 0.3774412967
11700000.0 0.4942672070 0.2052772293 0.0320266689 0.1567272191 0.0320266689 0.1567272191 0.5777118196 0.3769168700
11800000.0 0.4951210088 0.2038592491 0.0325543514 0.1550531143 0.0325543514 0.1550531143 0.5797179750 0.3764016042
11900000.0 0.4959565521 0.2024607267 0.0330631386 0.1534014862 0.0330631386 0.1534014862 0.5817081005 0.3758951591
12000000.0 0.4967743806 0.2010813001 0.0335536073 0.1517719640 0.0335536073 0.1517719640 0.5836826229 0.3753972033
12100000.0 0.4975750182 0.1997206146 0.0340263144 0.1501641841 0.0340263144 0.1501641841 0.5856419503 0.3749074136
12200000.0 0.4983589696 0.1983783228 0.0344817972 0.1485777895 0.0344817972 0.1485777895 0.5875864729 0.3744254754
12300000.0 0.4991267214 0.1970540839 0.0349205745 0.1470124296 0.0349205745 0.1470124296 0.5895165638 0.3739510823
12400000.0 0.4998787426 0.1957475643 0.0353431475 0.1454677607 0.0353431475 0.1454677607 0.5914325801 0.3734839363
12500000.0 0.5006154858 0.1944584369 0.0357499999 0.1439434452 0.0357499999 0.1439434452 0.5933348631 0.3730237470
12600000.0 0.5013373871 0.1931863817 0.0361415994 0.1424391521 0.0361415994 0.1424391521 0.5952237395 0.3725702322
12700000.0 0.5020448676 0.1919310849 0.0365183977 0.1409545566 0.0365183977 0.1409545566 0.5970995218 0.3721231173
12800000.0 0.5027383333 0.1906922393 0.0368808315 0.1394893399 0.0368808315 0.1394893399 0.5989625088 0.3716821354
12900000.0 0.5034181763 0.1894695440 0.0372293229 0.1380431894 0.0372293229 0.1380431894 0.6008129866 0.3712470270
13000000.0 0.5040847751 0.1882627045 0.0375642802 0.1366157984 0.0375642802 0.1366157984 0.6026512290 0.3708175399
13100000.0 0.5047384950 0.1870714324 0.0378860981 0.1352068661 0.0378860981 0.1352068661 0.6044774979 0.3703934292
13200000.0 0.5053796888 0.1858954451 0.0381951586 0.1338160972 0.0381951586 0.1338160972 0.6062920440 0.3699744569
13300000.0 0.5060086976 0.1847344662 0.0384918312 0.1324432023 0.0384918312 0.1324432023 0.6080951072 0.3695603920
13400000.0 0.5066258505 0.1835882248 0.0387764736 0.1310878974 0.0387764736 0.1310878974 0.6098869173 0.3691510102
13500000.0 0.5072314657 0.1824564559 0.0390494319 0.1297499039 0.0390494319 0.1297499039 0.6116676943 0.3687460938
13600000.0 0.5078258510 0.1813389000 0.0393110412 0.1284289484 0.0393110412 0.1284289484 0.6134376485 0.3683454316
13700000.0 0.5084093036 0.1802353030 0.0395616262 0.1271247631 0.0395616262 0.1271247631 0.6151969818 0.3679488186
13800000.0 0.5089821110 0.1791454162 0.0398015012 0.1258370848 0.0398015012 0.1258370848 0.6169458870 0.3675560563
13900000.0 0.5095445513 0.1780689961 0.0400309706 0.1245656556 0.0400309706 0.1245656556 0.6186845491 0.3671669518
14000000.0 0.5100968934 0.1770058043 0.0402503296 0.1233102224 0.0402503296 0.1233102224 0.6204131453 0.3667813185
14100000.0 0.5106393975 0.1759556075 0.0404598640 0.1220705370 0.0404598640 0.1220705370 0.6221318452 0.3663989755
14200000.0 0.5111723154 0.1749181772 0.0406598510 0.1208463557 0.0406598510 0.1208463557 0.6238408112 0.3660197473
14300000.0 0.5116958908 0.1738932897 0.0408505593 0.1196374397 0.0408505593 0.1196374397 0.6255401992 0.3656434642
14400000.0 0.5122103595 0.1728807260 0.0410322493 0.1184435543 0.0410322493 0.1184435543 0.6272301584 0.3652699617
14500000.0 0.5127159501 0.1718802719 0.0412051738 0.1172644696 0.0412051738 0.1172644696 0.6289108318 0.3648990806
14600000.0 0.5132128835 0.1708917174 0.0413695777 0.1160999598 0.0413695777 0.1160999598 0.6305823566 0.3645306669
14700000.0 0.5137013741 0.1699148570 0.0415256988 0.1149498033 0.0415256988 0.1149498033 0.6322448641 0.3641645715
14800000.0 0.5141816293 0.1689494896 0.0416737677 0.1138137828 0.0416737677 0.1138137828 0.6338984805 0.3638006503
14900000.0 0.5146538503 0.1679954181 0.0418140083 0.1126916850 0.0418140083 0.1126916850 0.6355433265 0.3634387638
15000000.0 0.5151182318 0.1670524498 0.0419466378 0.1115833003 0.0419466378 0.1115833003 0.6371795181 0.3630787773
15100000.0 0.5155749627 0.1661203957 0.0420718671 0.1104884234 0.0420718671 0.1104884234 0.6388071666 0.3627205605
15200000.0 0.5160242261 0.1651990709 0.0421899010 0.1094068524 0.0421899010 0.1094068524 0.6404263787 0.3623639876
15300000.0 0.5164661995 0.1642882943 0.0423009383 0.1083383895 0.0423009383 0.1083383895 0.6420372567 0.3620089370
15400000.0 0.5169010550 0.1633878887 0.0424051721 0.1072828401 0.0424051721 0.1072828401 0.6436398990 0.3616552914
15500000.0 0.5173289597 0.1624976802 0.0425027900 0.1062400135 0.0425027900 0.1062400135 0.6452344001 0.3613029376
15600000.0 0.5177500754 0.1616174989 0.0425939742 0.1052097223 0.0425939742 0.1052097223 0.6468208505 0.3609517663
15700000.0 0.5181645593 0.1607471782 0.0426789018 0.1041917825 0.0426789018 0.1041917825 0.6483993374 0.3606016720
15800000.0 0.5185725640 0.1598865549 0.0427577447 0.1031860136 0.0427577447 0.1031860136 0.6499699444 0.3602525532
15900000.0 0.5189742374 0.1590354692 0.0428306703 0.1021922381 0.0428306703 0.1021922381 0.6515327520 0.3599043118
16000000.0 0.5193697232 0.1581937645 0.0428978410 0.1012102818 0.0428978410 0.1012102818 0.6530878375 0.3595568536
16100000.0 0.5197591610 0.1573612876 0.0429594147 0.1002399738 0.0429594147 0.1002399738 0.6546352753 0.3592100876
16200000.0 0.5201426862 0.1565378881 0.0430155453 0.0992811458 0.0430155453 0.0992811458 0.6561751368 0.3588639263
16300000.0 0.5205204303 0.1557234191 0.0430663819 0.0983336330 0.0430663819 0.0983336330 0.6577074910 0.3585182855
16400000.0 0.5208925212 0.1549177362 0.0431120699 0.0973972731 0.0431120699 0.0973972731 0.6592324041 0.3581730843
16500000.0 0.5212590830 0.1541206982 0.0431527506 0.0964719070 0.0431527506 0.0964719070 0.6607499400 0.3578282447
16600000.0 0.5216202364 0.1533321666 0.0431885613 0.0955573780 0.0431885613 0.0955573780 0.6622601601 0.3574836920
16700000.0 0.5219760986 0.1525520060 0.0432196359 0.0946535326 0.0432196359 0.0946535326 0.6637631236 0.3571393542
16800000.0 0.5223267836 0.1517800832 0.0432461044 0.0937602197 0.0432461044 0.0937602197 0.6652588878 0.3567951624
16900000.0 0.5226724021 0.1510162682 0.0432680934 0.0928772908 0.0432680934 0.0928772908 0.6667475077 0.3564510504
17000000.0 0.5230130620 0.1502604332 0.0432857260 0.0920046000 0.0432857260 0.0920046000 0.6682290366 0.3561069546
17100000.0 0.5233488678 0.1495124532 0.0432991223 0.0911420041 0.0432991223 0.0911420041 0.6697035257 0.3557628143
17200000.0 0.5236799216 0.1487722054 0.0433083989 0.0902893620 0.0433083989 0.0902893620 0.6711710246 0.3554185712
17300000.0 0.5240063224 0.1480395698 0.0433136693 0.0894465354 0.0433136693 0.0894465354 0.6726315814 0.3550741694
17400000.0 0.5243281666 0.1473144284 0.0433150444 0.0886133880 0.0433150444 0.0886133880 0.6740852424 0.3547295557
17500000.0 0.5246455480 0.1465966657 0.0433126316 0.0877897862 0.0433126316 0.0877897862 0.6755320523 0.3543846790
17600000.0 0.5249585579 0.1458861686 0.0433065360 0.0869755982 0.0433065360 0.0869755982 0.6769720547 0.3540394905
17700000.0 0.5252672851 0.1451828259 0.0432968597 0.0861706948 0.0432968597 0.0861706948 0.6784052916 0.3536939439
17800000.0 0.5255718163 0.1444865288 0.0432837021 0.0853749487 0.0432837021 0.0853749487 0.6798318036 0.3533479948
17900000.0 0.5258722355 0.1437971706 0.0432671601 0.0845882350 0.0432671601 0.0845882350 0.6812516305 0.3530016009
18000000.0 0.5261686248 0.1431146465 0.0432473282 0.0838104306 0.0432473282 0.0838104306 0.6826648104 0.3526547219
18100000.0 0.5264610640 0.1424388539 0.0432242982 0.0830414146 0.0432242982 0.0830414146 0.6840713808 0.3523073198
