!Agilent Technologies,N5227A,US51270349,A.09.80.20
!Agilent N5227A: A.09.80.20
!Date: Saturday, September 07, 2024 04:36:31
!Correction: S11(Full 2 Port(1,2)) 
!S21(Full 2 Port(1,2)) 
!S12(Full 2 Port(1,2)) 
!S22(Full 2 Port(1,2)) 
!S2P File: Measurements: S11, S21, S12, S22:
# Hz S  RI   R 50
100000000 -0.0028258611 -0.0020387983 0.9924736 -0.1170648 0.9954716 -0.11794327 -0.0038576487 -0.0028510846
110000000 -0.0024531947 0.00010004761 0.99209356 -0.12688641 0.99327189 -0.12767428 -0.0038753489 0.00054926088
120000000 -0.0018386261 6.7721885e-005 0.99028641 -0.13940863 0.99151778 -0.13978396 -0.003286089 -5.1299285e-006
130000000 -0.00020220754 0.00087660848 0.98880088 -0.14917681 0.99050725 -0.14969294 -0.0029823987 0.0013062046
140000000 -0.0028910486 -0.0010589862 0.98482591 -0.16164409 0.98662525 -0.16243999 -0.0059612282 -0.00015235886
150000000 -0.0022795536 0.0002368873 0.98574275 -0.17310764 0.9868198 -0.17364727 -0.0027838049 0.00071983412
160000000 -0.0024663624 0.0014826799 0.98384261 -0.185127 0.98475897 -0.18544827 -0.0023424702 0.00085537927
170000000 -0.0024352742 0.0019079221 0.98100907 -0.19633694 0.98262769 -0.19676532 -0.0022610202 0.0011467991
180000000 -0.0013020585 0.002816953 0.97899514 -0.20781823 0.97992557 -0.20887375 -0.0017140064 0.002057672
190000000 -0.00010546007 0.0025484988 0.97508955 -0.2179336 0.97744304 -0.2194604 -0.0018327084 0.0016141561
200000000 0.0018856612 0.001079074 0.975115 -0.23105761 0.97596616 -0.23178425 -0.0029441293 0.00026771158
210000000 0.00015809326 0.0022286482 0.97076643 -0.24045926 0.97175068 -0.24148838 -0.0023311118 0.0029509247
220000000 -0.0011573883 0.0025277962 0.96782714 -0.25215641 0.96931422 -0.25330916 -0.0020203674 0.0017256875
230000000 -0.0010675116 0.002792117 0.96410394 -0.26376191 0.96624374 -0.26437479 -0.0014832634 0.0028639529
240000000 -0.00077529007 0.0041998234 0.96139634 -0.27477404 0.96300089 -0.27529994 -0.0014551592 0.0022451535
250000000 0.00020997709 0.0041370112 0.95854002 -0.28570697 0.95969462 -0.28615516 -0.0018856988 0.003056373
260000000 0.0021320696 0.0036990163 0.95538634 -0.29706538 0.95650119 -0.29657218 -0.00084571081 0.0022422902
270000000 0.0017480488 0.0034740216 0.95086485 -0.30734295 0.95301038 -0.30822876 -0.0012079576 0.0024299766
280000000 0.0010698299 0.0036055238 0.94783151 -0.31834483 0.94912791 -0.31891802 -0.00044376886 0.0028120973
290000000 -0.00045419773 0.0023317588 0.94381809 -0.33019251 0.94538265 -0.33006614 -0.0008922281 0.0031915957
300000000 7.3547773e-005 0.0034198503 0.94025397 -0.34099576 0.94121814 -0.34033602 -0.0017913202 0.0029348929
310000000 -6.0959701e-006 0.0030973547 0.93611556 -0.35101563 0.93733734 -0.35118651 -0.0015257074 0.0030249984
320000000 0.00084487675 0.0040765335 0.93222451 -0.36112377 0.9334963 -0.36236864 -0.0010503121 0.0031770214
330000000 0.0016535294 0.003660158 0.92768508 -0.37227052 0.92954385 -0.37323493 -3.975007e-005 0.0035764466
340000000 0.0031334055 0.0030899346 0.9232623 -0.38315132 0.92469418 -0.38346058 -0.00086632237 0.0029591997
350000000 0.0030795443 0.0025952666 0.91902214 -0.39317128 0.91994768 -0.39445966 -0.00043581671 0.0032908304
360000000 0.001803276 0.0028840846 0.914469 -0.40491208 0.91553581 -0.40450245 0.00016035329 0.0026063784
370000000 0.0007884868 0.0027796256 0.90905112 -0.41499746 0.91101801 -0.4155955 -0.00021457758 0.0029388601
380000000 0.0016877933 0.0042175571 0.90412855 -0.42582151 0.90582341 -0.42633209 0.00035604788 0.0032257123
390000000 0.0017298565 0.0043337899 0.89996254 -0.43599015 0.90104622 -0.43656918 0.00013902555 0.0033963474
400000000 0.0027986509 0.0040917033 0.89425969 -0.44583115 0.8958621 -0.44662225 0.0001019561 0.0035290204
410000000 0.0033453912 0.0036168441 0.88911265 -0.45677739 0.89042681 -0.45693877 0.00052811869 0.0031962385
420000000 0.0034385754 0.0034877495 0.88387197 -0.46700424 0.88514924 -0.46745962 0.00039805903 0.0029551589
430000000 0.003899277 0.0027315184 0.87872481 -0.47674307 0.87981391 -0.4774875 0.00082193653 0.003221252
440000000 0.0027632283 0.0035074758 0.87243938 -0.48687616 0.87418687 -0.48815858 0.0012445216 0.0028529481
450000000 0.0026953646 0.0038859423 0.86773872 -0.49690354 0.86824059 -0.49786028 0.0010120956 0.0039463043
460000000 0.0034295414 0.0045502698 0.8608982 -0.50714743 0.86250013 -0.50806785 0.0012134992 0.0040529142
470000000 0.0038782002 0.0050385389 0.85551667 -0.51677418 0.85651743 -0.51761216 0.00080599758 0.0036329741
480000000 0.0048680687 0.0045132535 0.84918028 -0.52632385 0.85029292 -0.52744669 0.0011633781 0.0036481691
490000000 0.0049156477 0.003658731 0.84293568 -0.53629261 0.84459662 -0.53732497 0.00144796 0.0033981744
500000000 0.0048901821 0.0026348496 0.83722144 -0.54603314 0.83807969 -0.54668289 0.0010625933 0.0039898013
510000000 0.0046692737 0.0032963874 0.83026111 -0.55608946 0.83131742 -0.55712438 0.00072023849 0.0038448886
520000000 0.004390494 0.003210006 0.82419813 -0.56579465 0.82551688 -0.56639016 0.0015272335 0.0033632705
530000000 0.003702292 0.005135952 0.81790847 -0.57454276 0.81881189 -0.57531071 0.0016635093 0.0035565977
540000000 0.0050231931 0.003998362 0.81099349 -0.58458465 0.8123306 -0.58509696 0.0013502692 0.0033602959
550000000 0.0053089974 0.0049684569 0.80351985 -0.59372503 0.8050853 -0.59398305 0.0020806401 0.0035549533
560000000 0.0067832978 0.0037244933 0.79662168 -0.60197538 0.79799193 -0.60313034 0.0022713426 0.004406285
570000000 0.0063257986 0.0028582541 0.79008377 -0.61177051 0.79135871 -0.61206615 0.0019361618 0.0039051126
580000000 0.0061755544 0.0024082602 0.7835021 -0.61986852 0.78385746 -0.62146682 0.0021433907 0.0033524761
590000000 0.0055377702 0.0027897146 0.77626842 -0.62984145 0.77687514 -0.6305114 0.0021923517 0.0032702857
600000000 0.0054595829 0.0030034955 0.7679646 -0.63908315 0.76897383 -0.63952148 0.0022754699 0.0035055925
610000000 0.0054847114 0.0043409364 0.76094842 -0.64792353 0.76115525 -0.64858902 0.0019949551 0.0036359148
620000000 0.0067086709 0.0049233167 0.75307071 -0.65632761 0.75418127 -0.65737671 0.0019955391 0.0038527583
630000000 0.0072600502 0.0042929025 0.74582851 -0.66563946 0.74644184 -0.66598833 0.00261353 0.0036815102
640000000 0.0080962367 0.0023993426 0.73831433 -0.67374551 0.73893058 -0.67472923 0.0027301519 0.0035676714
650000000 0.0069252672 0.0016524671 0.73119563 -0.68188035 0.73067331 -0.68269533 0.0027355691 0.0037004787
660000000 0.0061957082 0.0020368414 0.72196519 -0.69057101 0.72323763 -0.69101632 0.0030449117 0.0034038823
670000000 0.0066344994 0.0021715676 0.71393085 -0.69894201 0.7151826 -0.69948268 0.0037014331 0.0033937828
680000000 0.0066980887 0.0028319359 0.70511901 -0.70649314 0.70620799 -0.70778245 0.0025220276 0.0033982741
690000000 0.0078268796 0.0025394931 0.69778597 -0.71427661 0.69914156 -0.71485895 0.0038403615 0.0022939278
700000000 0.0079878652 0.0027308646 0.68849868 -0.72248995 0.69038159 -0.72363538 0.0030283732 0.003322026
710000000 0.0083587831 0.0016051423 0.68075764 -0.73052043 0.68169814 -0.73107702 0.0033825075 0.0037641877
720000000 0.0080449525 -9.1487615e-005 0.67224741 -0.73717725 0.67333001 -0.7387439 0.0034226056 0.0028950453
730000000 0.0074993819 0.00059160625 0.66467631 -0.74616927 0.66531467 -0.74722618 0.0032198031 0.002619074
740000000 0.0074458467 0.0010019003 0.65516025 -0.7536974 0.65642679 -0.75456184 0.0031838571 0.0032146715
750000000 0.0072606164 0.0014560876 0.64722532 -0.76068109 0.64739662 -0.76166022 0.0037916752 0.0028229286
760000000 0.0072345715 0.0020604376 0.63814825 -0.76820534 0.63851285 -0.76941907 0.0035909538 0.0024449395
770000000 0.0081546139 0.0021277154 0.62935567 -0.77528101 0.62958258 -0.77692729 0.0033776613 0.0029475186
780000000 0.0089427363 0.0019097825 0.62011093 -0.78276604 0.62089527 -0.78440702 0.0038095571 0.0026049931
790000000 0.0093395431 0.00096033019 0.61098731 -0.78987086 0.61146742 -0.79149276 0.0038356024 0.0027345959
800000000 0.0086409952 0.001124564 0.60151494 -0.79612696 0.60195118 -0.79856437 0.0042662895 0.002396503
810000000 0.0082991729 -0.00047086153 0.59275883 -0.80341244 0.59283662 -0.80467981 0.0036659383 0.003179457
820000000 0.0077859154 0.00019964104 0.58281511 -0.81127566 0.58423072 -0.81165802 0.0044654175 0.0027196943
830000000 0.007655187 0.00057611713 0.57424718 -0.81645429 0.57448882 -0.81854916 0.0046948921 0.002423137
840000000 0.0086781215 0.00091145787 0.56516618 -0.82385391 0.56464499 -0.82498562 0.0045010662 0.0016977303
850000000 0.0097490931 0.00025902526 0.5549866 -0.83015645 0.55569869 -0.83149987 0.0043312395 0.0015270818
860000000 0.0089866063 -0.00093483459 0.54518819 -0.83636558 0.54585809 -0.83742058 0.0045190449 0.0024519777
870000000 0.0086693317 -0.00089898502 0.53528255 -0.84261757 0.53567386 -0.84397477 0.0038177981 0.0015532883
880000000 0.0088324863 -0.001176943 0.52527654 -0.84833169 0.52653325 -0.85021335 0.004264466 0.001697826
890000000 0.0079728514 -0.00077340484 0.51625919 -0.85423052 0.51626003 -0.85626388 0.0049202791 0.0016148147
900000000 0.0075959978 -0.00064004387 0.50607193 -0.8609634 0.50666213 -0.86213434 0.0045578866 0.0013921733
910000000 0.0079012327 -0.00070025958 0.49615398 -0.86590481 0.49670044 -0.86756438 0.0043766 0.0015561254
920000000 0.0086519457 -0.00053557585 0.48556519 -0.8713491 0.48645324 -0.87294805 0.0043431357 0.0012606956
930000000 0.0098244669 -0.001207318 0.47650823 -0.87739009 0.47683755 -0.87838072 0.004449904 0.00097188895
940000000 0.0097266668 -0.0022122846 0.46615857 -0.8824957 0.46670318 -0.8842324 0.0042397347 0.00056190678
950000000 0.0084499596 -0.0025082203 0.45596302 -0.88837624 0.45652518 -0.88919789 0.004291656 0.0011061369
960000000 0.0075002587 -0.0026516656 0.44553649 -0.89246356 0.44630283 -0.89440042 0.0043828879 0.0010662407
970000000 0.0079937158 -0.0018818931 0.4355756 -0.89801061 0.43620434 -0.89941561 0.0042676344 0.0012805029
980000000 0.0077675558 -0.0017820316 0.42503187 -0.90333605 0.42539656 -0.90451723 0.0042700185 0.0010510817
990000000 0.008294357 -0.0017580279 0.41386047 -0.90733081 0.41512373 -0.90932751 0.0047705332 0.00032432645
1000000000 0.0090664765 -0.0021345252 0.40416873 -0.9121964 0.40413412 -0.91385216 0.0046241987 0.00060410675
1010000000 0.0094887996 -0.0024140275 0.39317772 -0.91695559 0.39351293 -0.91781127 0.004331545 0.00073204382
1020000000 0.0088999365 -0.003141636 0.38256097 -0.92166466 0.38329849 -0.92225993 0.0048276721 0.00080190902
1030000000 0.0084002232 -0.0036275133 0.37243959 -0.92594498 0.37248617 -0.92708105 0.004740356 0.00045570114
1040000000 0.0071927095 -0.003572355 0.36148372 -0.93042779 0.3619521 -0.93143284 0.0044075083 0.00033035086
1050000000 0.0080381259 -0.0033655723 0.35067436 -0.9342159 0.35123205 -0.93553728 0.005267675 -7.7913821e-005
1060000000 0.0077521815 -0.0023616757 0.33977771 -0.93826503 0.34044155 -0.93936944 0.0047043581 0.0001672761
1070000000 0.0081177857 -0.0021142603 0.32922703 -0.94173914 0.32912084 -0.94335955 0.0050995648 0.00048503705
1080000000 0.0085193329 -0.0027357971 0.31784767 -0.94536024 0.3185192 -0.94676298 0.005464965 0.00089909794
1090000000 0.0084192967 -0.0037561548 0.30696413 -0.94923496 0.30730551 -0.95076376 0.0049882685 0.00021564146
1100000000 0.008095365 -0.0043231635 0.29633471 -0.95242536 0.29642749 -0.95383102 0.0051748739 -0.00011951406
1110000000 0.0070843245 -0.0042110733 0.28478968 -0.95567906 0.28558469 -0.95701736 0.0050616772 0.00034548657
1120000000 0.0059770611 -0.0029594246 0.2738806 -0.95952523 0.27454236 -0.96050495 0.0046456074 0.00024681451
1130000000 0.0066833766 -0.0028977529 0.26303661 -0.96265107 0.26331404 -0.96370184 0.0046097431 -9.3743685e-005
1140000000 0.0073027546 -0.0028637282 0.25161102 -0.96581268 0.25187796 -0.96628249 0.0038407044 0.00017170004
1150000000 0.0077046882 -0.0033950077 0.24115257 -0.96845156 0.24112177 -0.96964604 0.0045814812 -0.00088508212
1160000000 0.0070710462 -0.003742265 0.2294732 -0.97072202 0.22977404 -0.97217369 0.0043319594 -0.00055445806
1170000000 0.0073390896 -0.0048005101 0.21845175 -0.97315609 0.21852064 -0.97456342 0.0046297559 -0.00020329065
1180000000 0.0065986873 -0.0046582404 0.20716421 -0.97578567 0.20728523 -0.97706205 0.0043169009 -5.0874161e-005
1190000000 0.0062291487 -0.0043968018 0.19623338 -0.97792131 0.19612519 -0.97989315 0.0045597344 -0.00064380304
1200000000 0.0062662079 -0.003971525 0.18415381 -0.98065716 0.18457378 -0.98148227 0.0043005529 -0.00065900449
1210000000 0.0061686151 -0.0037194537 0.17319579 -0.9821524 0.17331104 -0.9835273 0.0043864604 -0.00065809558
1220000000 0.005903258 -0.0028460941 0.16167776 -0.9838984 0.16211496 -0.9858337 0.0040681423 -0.00026800981
1230000000 0.0067538689 -0.0041342229 0.15052952 -0.98633462 0.15079121 -0.98768169 0.0041790381 -0.00040826495
1240000000 0.0070189834 -0.0048803175 0.13862656 -0.98739827 0.13929231 -0.98892283 0.0040638661 -0.0012063221
1250000000 0.0058066952 -0.0052051032 0.1276027 -0.98940527 0.12805605 -0.99016386 0.0040206993 -0.00094628049
1260000000 0.0047674244 -0.0056412923 0.11687891 -0.99061728 0.11655706 -0.99200851 0.0038841183 -0.0014904762
1270000000 0.0041448153 -0.0045258822 0.10488603 -0.9917748 0.10507977 -0.99308366 0.0037169403 -0.0015431634
1280000000 0.0048415102 -0.0038390118 0.093341656 -0.9930948 0.093608372 -0.99404168 0.0035627729 -0.0015183873
1290000000 0.0044899187 -0.0032424775 0.081867918 -0.99350321 0.08235088 -0.99532109 0.0030890026 -0.0020070756
1300000000 0.0052976976 -0.0035604204 0.070951246 -0.99461061 0.070683971 -0.99600148 0.0037197587 -0.0023840847
1310000000 0.0047671329 -0.004355676 0.058996499 -0.99571246 0.059083559 -0.99657351 0.0035412877 -0.0022768534
1320000000 0.0043427572 -0.00483019 0.04773546 -0.99608868 0.047643472 -0.99717659 0.0033368715 -0.0019184973
1330000000 0.0038022771 -0.0055453707 0.036425136 -0.99633753 0.036647081 -0.9978056 0.0039070719 -0.0020178726
1340000000 0.0033181212 -0.0047221715 0.024999218 -0.99704295 0.024604104 -0.9980641 0.0034790591 -0.0021973427
1350000000 0.0028349785 -0.0041210367 0.013128127 -0.99656981 0.013264348 -0.99822879 0.0032190536 -0.0020052008
1360000000 0.0033722355 -0.0033517906 0.001452093 -0.99632406 0.0013972464 -0.99846506 0.0028448896 -0.0023473485
1370000000 0.0035426714 -0.0032957923 -0.0097321989 -0.9966414 -0.0099365562 -0.99807984 0.0029513566 -0.0023586357
1380000000 0.0044216341 -0.0034675652 -0.021570792 -0.99663895 -0.021413013 -0.99798447 0.0029358943 -0.0022807459
1390000000 0.0035506401 -0.0039755409 -0.032971609 -0.99643391 -0.03293461 -0.99785954 0.0022813743 -0.0027811946
1400000000 0.0028813449 -0.004606219 -0.043712057 -0.99585229 -0.044663213 -0.99745733 0.0023847874 -0.0027729201
1410000000 0.0020610206 -0.0053465222 -0.055911046 -0.99552894 -0.055783678 -0.99647003 0.0027682257 -0.0030085177
1420000000 0.0018048806 -0.0039166906 -0.06734582 -0.99447286 -0.067287311 -0.99583751 0.0030005577 -0.0025633893
1430000000 0.0018745594 -0.0035460158 -0.078571416 -0.99360383 -0.078801513 -0.99520189 0.0025257415 -0.0027549758
1440000000 0.0026827068 -0.0034257986 -0.090333134 -0.99283946 -0.090159789 -0.99421525 0.0023924152 -0.0031146673
1450000000 0.0028586627 -0.0035841363 -0.10175049 -0.99132925 -0.10192789 -0.99306786 0.0028515286 -0.0026743764
1460000000 0.0023726725 -0.0041605216 -0.11293053 -0.99018025 -0.11298078 -0.99168724 0.0026960422 -0.00307749
1470000000 0.0021876635 -0.0049237339 -0.12453743 -0.98851842 -0.12461245 -0.99013495 0.0021308591 -0.002923911
1480000000 0.0012535275 -0.0047095544 -0.13587596 -0.9865303 -0.13613535 -0.98877662 0.0015074192 -0.0026675267
1490000000 0.0011592252 -0.0045886529 -0.1470017 -0.98562312 -0.14739795 -0.98681146 0.0015266899 -0.0032283135
1500000000 0.00013412941 -0.0036167526 -0.15852045 -0.98409784 -0.15886821 -0.98522431 0.0015606022 -0.0032240143
1510000000 0.00083899719 -0.0028767693 -0.1698629 -0.98166543 -0.17018592 -0.98289096 0.0019794877 -0.0031708349
1520000000 0.0016611052 -0.0025571892 -0.18146028 -0.98017174 -0.18162158 -0.98128945 0.0014798284 -0.0033050359
1530000000 0.0017967199 -0.0029908931 -0.19287547 -0.97765207 -0.19307414 -0.97902137 0.0014958138 -0.0033164413
1540000000 0.0016562965 -0.0039786426 -0.20426202 -0.97557646 -0.20433247 -0.97686934 0.00089344947 -0.0036595957
1550000000 0.00099716231 -0.0041286093 -0.21517888 -0.97264379 -0.21555743 -0.97413152 0.0011540186 -0.0035038218
1560000000 -0.000295151 -0.0039246571 -0.22639142 -0.97047079 -0.2267492 -0.97141165 0.0011955514 -0.0040950845
1570000000 -0.00076976448 -0.0032132789 -0.2372862 -0.96771801 -0.23769677 -0.96892577 0.00056874432 -0.0038104756
1580000000 -0.0006466856 -0.0023353104 -0.24842143 -0.96477687 -0.24869218 -0.966061 0.00075212971 -0.0036611168
1590000000 0.00024494407 -0.0019548917 -0.25961 -0.96212274 -0.26014146 -0.96294647 0.00030317646 -0.0037010738
1600000000 0.00043039184 -0.0025416808 -0.27071333 -0.95832133 -0.27135244 -0.9603017 0.00047783129 -0.0036518222
1610000000 0.00039116986 -0.0032921976 -0.28152898 -0.95540184 -0.28236648 -0.9569279 0.00031558628 -0.0036860064
1620000000 -0.0003394004 -0.0038339712 -0.29254362 -0.95216447 -0.29336092 -0.95353848 0.00035994832 -0.0040090717
1630000000 -0.0011799677 -0.0039250506 -0.30354211 -0.94881201 -0.30402941 -0.94992024 -0.0002189407 -0.0040008514
1640000000 -0.0020023347 -0.0032313261 -0.31473687 -0.94537467 -0.31514585 -0.94657618 -0.00060568942 -0.0037188572
1650000000 -0.0026568887 -0.0024369988 -0.32589144 -0.9421519 -0.32611111 -0.94310135 -0.00056119275 -0.0043037087
1660000000 -0.0015671664 -0.0011478681 -0.33638042 -0.93752837 -0.33681697 -0.9393276 -0.00041533308 -0.0040378217
1670000000 -0.00055845489 -0.0016276898 -0.34762061 -0.93392396 -0.3477715 -0.93514425 -0.00064776366 -0.0041473312
1680000000 -0.00060326519 -0.0019839506 -0.3583374 -0.93006533 -0.35849711 -0.93085068 -0.0010816547 -0.0036284998
1690000000 -0.0011447161 -0.003035536 -0.3683351 -0.92544615 -0.369268 -0.92697108 -0.00078850886 -0.0038708057
1700000000 -0.0025758829 -0.0030803517 -0.37930503 -0.92126179 -0.38008869 -0.92271608 -0.0016975424 -0.0038332311
1710000000 -0.0027919482 -0.0023613528 -0.38981307 -0.9167161 -0.39060628 -0.91801482 -0.00072078337 -0.0038214771
1720000000 -0.003235582 -0.0014434299 -0.40051407 -0.91196263 -0.40082681 -0.91289562 -0.0016047411 -0.0036680747
1730000000 -0.0026713389 -0.00073041412 -0.41063061 -0.9073652 -0.41178197 -0.90871853 -0.0018402562 -0.0039511663
1740000000 -0.0026125803 -0.00051496434 -0.4210681 -0.90292549 -0.42188185 -0.90355921 -0.0023876349 -0.0036750017
1750000000 -0.0022380294 -0.00079634378 -0.43172565 -0.89746451 -0.43259087 -0.89879966 -0.0028080181 -0.0037383807
1760000000 -0.0019058497 -0.0009883428 -0.44216642 -0.89270765 -0.44290298 -0.89387399 -0.0022814465 -0.0041427729
1770000000 -0.0030301088 -0.0017300795 -0.45240092 -0.88767576 -0.452934 -0.88856399 -0.0025363429 -0.0044736443
1780000000 -0.0030463529 -0.00096107228 -0.46243957 -0.88198471 -0.46326002 -0.88314235 -0.0027883726 -0.003655649
1790000000 -0.0042140051 -0.00046496955 -0.47276309 -0.87681288 -0.47343451 -0.87806845 -0.0029495107 -0.00349833
1800000000 -0.0039968905 0.00042053501 -0.48261452 -0.87100744 -0.48374248 -0.87219322 -0.0032115334 -0.003497296
1810000000 -0.0037757091 0.0015503016 -0.49288303 -0.86545938 -0.49376509 -0.86675954 -0.003128778 -0.0034376706
1820000000 -0.0023576708 0.0011042971 -0.50265044 -0.85964882 -0.50336003 -0.86072767 -0.0032295007 -0.0035393382
1830000000 -0.0025557815 5.1363199e-006 -0.51197344 -0.85393745 -0.51316822 -0.85473365 -0.0032058696 -0.0033570556
1840000000 -0.0037210244 0.00013299644 -0.52229047 -0.848019 -0.52352655 -0.84882981 -0.004140975 -0.0030131284
1850000000 -0.0037668655 -0.00017056748 -0.53206497 -0.84120202 -0.53299224 -0.8428337 -0.0035755031 -0.0028935692
